date Tue Jun 03 10:00:00 AM 2026
base hex  timestamps absolute
internal events logged
Begin Triggerblock
   0.009843 1  100             Rx   d 8 73 F3 02 9A E2 4C 5D 5A
   0.019396 1  1FF             Rx   d 8 BD E3 B7 68 84 FD E1 4C
   0.014936 1  200             Rx   d 8 50 89 1F 3A F8 A9 81 50
   0.049026 1  2AB             Rx   d 8 D8 8F A4 C9 A1 0D 94 32
   0.005082 1  300             Rx   d 8 20 73 28 05 AB 80 DE 14
   0.100402 1  3E0             Rx   d 8 0E D3 AB 9D FE 70 C2 3E
   0.019571 1  400             Rx   d 8 F7 84 20 13 9F 21 62 20
   0.010090 1  4CC             Rx   d 8 C8 F0 68 B6 27 C2 11 DF
   0.050165 1  500             Rx   d 8 CF 2F 03 F4 CA 0A 2E 40
   0.025764 1  600             Rx   d 8 48 05 F1 5C 70 15 5C 19
   0.019887 1  100             Rx   d 8 63 53 46 4A 8E 8E CD A2
   0.038843 1  1FF             Rx   d 8 0F A9 A5 37 D6 DB 41 3C
   0.029549 1  200             Rx   d 8 0F C7 2C 7B 9A AC AE 48
   0.098820 1  2AB             Rx   d 8 39 5E 2A C4 B9 7E 66 CC
   0.010111 1  300             Rx   d 8 D3 48 80 1E 15 09 EB 69
   0.200663 1  3E0             Rx   d 8 43 6A 04 D5 C3 F5 0B 0C
   0.039783 1  400             Rx   d 8 77 3C 81 E1 DA 18 E1 A9
   0.020382 1  4CC             Rx   d 8 8A 44 25 C6 E2 5B 14 E5
   0.101025 1  500             Rx   d 8 56 2F 2B 99 64 BF 0E 9A
   0.050743 1  600             Rx   d 8 B0 69 8E 9E A0 81 B2 A8
   0.029815 1  100             Rx   d 8 83 8F AB A3 0D 92 35 30
   0.058370 1  1FF             Rx   d 8 AA A7 90 C5 B6 EE DF 42
   0.044778 1  200             Rx   d 8 51 E0 9A 24 98 8C 2F E2
   0.148537 1  2AB             Rx   d 8 20 5A 1A C5 B3 CC 49 15
   0.014947 1  300             Rx   d 8 86 18 22 AB BD E2 93 8C
   0.302769 1  3E0             Rx   d 8 27 1F AA 1F 77 D8 D5 66
   0.059711 1  400             Rx   d 8 44 D7 3F EE 8B D7 83 32
   0.030035 1  4CC             Rx   d 8 B6 EC 87 6A 50 60 17 51
   0.151945 1  500             Rx   d 8 D7 11 24 C2 6D C6 BA 8F
   0.075696 1  600             Rx   d 8 11 0D EA DE EC 30 42 CC
   0.039555 1  100             Rx   d 8 DE 96 26 4F 40 B5 5D 2D
   0.078501 1  1FF             Rx   d 8 51 47 EC 10 2E 16 7B E2
   0.059503 1  200             Rx   d 8 AD 13 E8 54 69 22 41 2B
   0.197361 1  2AB             Rx   d 8 A1 9E 56 01 85 7B 2B 35
   0.019821 1  300             Rx   d 8 02 0D 0A 6F 87 55 40 63
   0.406264 1  3E0             Rx   d 8 22 6A AB 4A 94 D8 14 E0
   0.080033 1  400             Rx   d 8 F6 C4 AE 14 CD 43 55 83
   0.039782 1  4CC             Rx   d 8 6B D2 36 11 CC A7 1E 4E
   0.201141 1  500             Rx   d 8 B6 B1 2E 64 95 8D E4 FA
   0.100153 1  600             Rx   d 8 8B E8 7A 97 31 07 6E 09
   0.049899 1  100             Rx   d 8 3E 2C DA 8C F7 A2 1A C4
   0.097838 1  1FF             Rx   d 8 28 B8 E3 A4 9F BB 4F DF
   0.074238 1  200             Rx   d 8 F7 A9 CD E0 B7 F9 05 44
   0.246734 1  2AB             Rx   d 8 63 E7 04 A9 D6 13 13 9A
   0.024913 1  300             Rx   d 8 AF 26 4A A4 EE 79 AE AD
   0.505058 1  3E0             Rx   d 8 C4 84 7D 30 DA 48 F5 74
   0.100446 1  400             Rx   d 8 71 FA 85 DF 3A 37 E6 68
   0.049727 1  4CC             Rx   d 8 09 DF E0 7D E2 38 EE BA
   0.251957 1  500             Rx   d 8 C2 D4 9E 8D 72 E9 18 42
   0.125138 1  600             Rx   d 8 07 EB B4 2B 92 C3 FF 84
   0.060162 1  100             Rx   d 8 2B F6 2E BD 76 E3 F6 87
   0.117414 1  1FF             Rx   d 8 F2 B1 98 03 B7 61 E5 FC
   0.089368 1  200             Rx   d 8 0A D0 BE B8 4E CB 01 13
   0.297818 1  2AB             Rx   d 8 71 50 82 80 04 DB E2 AA
   0.029955 1  300             Rx   d 8 82 26 48 53 EA 67 4A 09
   0.604044 1  3E0             Rx   d 8 C6 FE 5D B2 C2 4C 83 2B
   0.120059 1  400             Rx   d 8 CD BB 10 BC 40 D2 27 55
   0.059596 1  4CC             Rx   d 8 08 15 E5 17 4D 97 21 4E
   0.301061 1  500             Rx   d 8 F9 CA 2E 23 D5 B3 66 43
   0.149287 1  600             Rx   d 8 57 7B 4A 52 BE F4 F5 DF
   0.070184 1  100             Rx   d 8 C3 DE 1C 8B D2 51 6F DE
   0.136885 1  1FF             Rx   d 8 EA 42 42 88 86 89 74 5D
   0.104454 1  200             Rx   d 8 B1 08 0C 71 64 77 43 0C
   0.347821 1  2AB             Rx   d 8 0A FC 77 24 59 31 5A A6
   0.034976 1  300             Rx   d 8 07 B5 A6 56 E6 AF E5 3C
   0.702125 1  3E0             Rx   d 8 ED 49 83 6A C5 30 2D 42
   0.140303 1  400             Rx   d 8 6C 86 9A 8F 97 B3 4C D5
   0.069845 1  4CC             Rx   d 8 7B 69 4A D7 FD C7 87 AA
   0.352644 1  500             Rx   d 8 77 10 D0 C1 75 F0 AA 55
   0.173919 1  600             Rx   d 8 83 E7 C1 C7 C8 D9 97 94
   0.079865 1  100             Rx   d 8 2A F9 E9 82 0E 21 68 79
   0.157493 1  1FF             Rx   d 8 21 90 2C 67 AD F7 70 2D
   0.119947 1  200             Rx   d 8 CA 8A 96 1E E6 D1 09 35
   0.396549 1  2AB             Rx   d 8 29 99 05 08 36 7E A1 0D
   0.040034 1  300             Rx   d 8 39 C5 70 0E CE C1 56 E4
   0.800367 1  3E0             Rx   d 8 99 A2 DA 53 23 B7 77 E3
   0.160191 1  400             Rx   d 8 FB 7C F9 EA 3D 1F B4 F4
   0.079623 1  4CC             Rx   d 8 5E E5 7C 33 C5 D2 26 BD
   0.402953 1  500             Rx   d 8 2F 34 5D 70 35 7F 53 34
   0.198658 1  600             Rx   d 8 C6 B3 BE C1 29 64 47 46
   0.089577 1  100             Rx   d 8 5F 61 1C E7 62 E8 29 0B
   0.177991 1  1FF             Rx   d 8 B8 E9 EC 38 B1 74 5D E1
   0.135172 1  200             Rx   d 8 40 24 C8 AA 25 DA 11 5A
   0.445935 1  2AB             Rx   d 8 C8 A9 19 31 47 20 A1 A7
   0.045083 1  300             Rx   d 8 A0 A2 34 91 CD DA 7F 3B
   0.903322 1  3E0             Rx   d 8 F0 BE 72 72 DE 6E 1F 6D
   0.180789 1  400             Rx   d 8 88 EE 5C E4 2B A9 15 E8
   0.089820 1  4CC             Rx   d 8 D1 5A B5 50 60 94 5B 46
   0.451802 1  500             Rx   d 8 F7 79 15 0B 54 10 1E B6
   0.223112 1  600             Rx   d 8 D5 69 2D 24 F1 CC 84 16
   0.099537 1  100             Rx   d 8 77 8D 15 B5 82 A4 B1 C1
   0.198144 1  1FF             Rx   d 8 A6 4D 87 20 B4 F2 5C 14
   0.150113 1  200             Rx   d 8 D2 74 96 EC A0 05 83 16
   0.495469 1  2AB             Rx   d 8 AD D9 0C 0B C5 74 D5 1C
   0.049951 1  300             Rx   d 8 39 4F 74 8E E5 9C 67 92
   1.001535 1  3E0             Rx   d 8 14 EE DF 56 EB ED 79 14
   0.200633 1  400             Rx   d 8 70 22 0C 35 11 9D 2B EC
   0.099896 1  4CC             Rx   d 8 32 E7 20 B6 D1 B5 73 BF
   0.500988 1  500             Rx   d 8 9F CF B1 0C 81 CE 09 A6
   0.248955 1  600             Rx   d 8 44 08 72 91 9F 08 F7 D9
   0.109255 1  100             Rx   d 8 14 1E D6 97 2F FB BC 3C
   0.217773 1  1FF             Rx   d 8 20 A0 8E 06 34 68 FD C4
   0.164607 1  200             Rx   d 8 7A 75 21 F6 8B B8 76 52
   0.544325 1  2AB             Rx   d 8 47 DA F2 07 E3 E2 8A C2
   0.054876 1  300             Rx   d 8 CE 89 0A BF 6B D9 C2 DE
   1.103490 1  3E0             Rx   d 8 60 84 B6 2C 8A EE 58 5D
   0.220584 1  400             Rx   d 8 B5 C7 32 CD 2E 95 04 17
   0.109785 1  4CC             Rx   d 8 EA 4A 40 FB 18 E1 E8 0D
   0.552730 1  500             Rx   d 8 D1 1D 43 3A B9 0C A3 B4
   0.274663 1  600             Rx   d 8 F4 E4 24 47 A7 CE A2 C7
   0.119577 1  100             Rx   d 8 97 D8 40 95 CD 52 3A AC
   0.237505 1  1FF             Rx   d 8 BF 4D 22 A3 D3 A5 24 24
   0.179708 1  200             Rx   d 8 15 99 41 D7 C0 B1 D6 8A
   0.593849 1  2AB             Rx   d 8 C9 2F 42 0B BA 26 5B 17
   0.059966 1  300             Rx   d 8 29 0C 9C A2 4F 51 87 5F
   1.203103 1  3E0             Rx   d 8 1E D0 ED 1C 03 7C B8 47
   0.240650 1  400             Rx   d 8 2A 4F 87 53 78 1D 64 89
   0.119593 1  4CC             Rx   d 8 FC 95 3B 0E 22 DF AC EC
   0.601016 1  500             Rx   d 8 7A 8C 8D 1B 53 79 4A AC
   0.298996 1  600             Rx   d 8 28 1F 0F DF 7B 8D 72 98
   0.129330 1  100             Rx   d 8 03 ED 1F 3E 50 8C 26 32
   0.257656 1  1FF             Rx   d 8 EB 2F 26 5C 9E DC FE D0
   0.194987 1  200             Rx   d 8 C3 44 EB E8 7C 09 86 34
   0.643131 1  2AB             Rx   d 8 B2 0A 40 66 38 B3 6C BE
   0.064913 1  300             Rx   d 8 D0 EB AC 54 97 9B C1 18
   1.300455 1  3E0             Rx   d 8 3E 39 E7 20 04 BC BE 9F
   0.260566 1  400             Rx   d 8 04 C5 80 DB 3F B4 66 33
   0.129743 1  4CC             Rx   d 8 17 CE E7 7B 6C 76 86 A0
   0.649277 1  500             Rx   d 8 DC 9A 2B 74 56 7C 15 FB
   0.324499 1  600             Rx   d 8 22 78 B5 2C 42 2C 8D 3C
   0.139280 1  100             Rx   d 8 62 CE C7 29 37 42 3E 65
   0.277089 1  1FF             Rx   d 8 8B 1E 72 BE 67 35 C2 32
   0.210193 1  200             Rx   d 8 9B 19 37 05 4B 14 86 25
   0.691616 1  2AB             Rx   d 8 49 2D 13 7C BA E5 97 57
   0.069922 1  300             Rx   d 8 D3 FE 3E 8E E5 00 B2 B8
   1.399138 1  3E0             Rx   d 8 B4 BA 6A CF 8A F4 F1 64
   0.280354 1  400             Rx   d 8 73 AF FC 4A C6 54 86 65
   0.139848 1  4CC             Rx   d 8 6C 45 6A C3 9C 2C 8B 00
   0.697787 1  500             Rx   d 8 19 58 27 54 06 00 44 8A
   0.349743 1  600             Rx   d 8 8A 13 90 D6 FC E5 AA 5F
   0.148946 1  100             Rx   d 8 C5 54 EB 3D 8A F3 2F C6
   0.297704 1  1FF             Rx   d 8 8D 01 B7 C4 C6 6A C1 39
   0.225555 1  200             Rx   d 8 10 5C DF 83 2C D3 C9 68
   0.743303 1  2AB             Rx   d 8 25 DC 93 46 F9 1C E4 A1
   0.075058 1  300             Rx   d 8 7B 69 BF 27 E4 BA 24 DD
   1.496301 1  3E0             Rx   d 8 08 9D 42 1F 69 6C B5 4E
   0.300714 1  400             Rx   d 8 1B 09 45 69 16 33 C4 F2
   0.150066 1  4CC             Rx   d 8 AA BE E0 D6 66 2D 54 EF
   0.748413 1  500             Rx   d 8 7A CD E4 BD CE 82 E9 B5
   0.375032 1  600             Rx   d 8 2A 5F FD E2 5A 95 3D 00
   0.158740 1  100             Rx   d 8 92 5C 18 0B 1C 10 76 82
   0.318102 1  1FF             Rx   d 8 A8 FE 25 FE FA 04 FA 68
   0.240686 1  200             Rx   d 8 97 2E F2 CE 26 E8 6B BC
   0.791925 1  2AB             Rx   d 8 7D 9F 10 9D DE 3F E3 1A
   0.080151 1  300             Rx   d 8 29 F0 C2 15 4C 25 BF 52
   1.593439 1  3E0             Rx   d 8 0E 7D 0A 87 B8 76 AC 99
   0.321045 1  400             Rx   d 8 B4 6D 6B B3 33 B4 56 DD
   0.159917 1  4CC             Rx   d 8 3C BA D5 C0 79 55 4E 30
   0.799131 1  500             Rx   d 8 6D 59 D9 CB C5 6F 0B FE
   0.399635 1  600             Rx   d 8 45 93 C3 50 C3 39 2E EA
   0.168844 1  100             Rx   d 8 B0 66 D0 05 37 E4 BB 90
   0.338761 1  1FF             Rx   d 8 71 5D AE 1A 1C 14 19 7F
   0.255511 1  200             Rx   d 8 CD 4A DB 34 14 B0 79 12
   0.841989 1  2AB             Rx   d 8 AF 84 DD 47 CE BD 6C 71
   0.084998 1  300             Rx   d 8 F1 EA 4F 9A 80 84 44 D3
   1.690617 1  3E0             Rx   d 8 3E D1 DD A4 6C 08 49 47
   0.340709 1  400             Rx   d 8 CC 64 08 6D 15 82 E5 20
   0.170106 1  4CC             Rx   d 8 CD 68 AA 65 6E 84 E7 3B
   0.848016 1  500             Rx   d 8 6D 49 82 64 5C 2B 39 3C
   0.424866 1  600             Rx   d 8 16 DB 7D DF E8 86 70 1F
   0.178807 1  100             Rx   d 8 88 B5 91 04 8F 30 9E E1
   0.358089 1  1FF             Rx   d 8 AE 61 86 3C E4 1B 38 33
   0.269994 1  200             Rx   d 8 D0 90 3C 06 6C BB 34 EA
   0.892256 1  2AB             Rx   d 8 72 56 79 8E F2 5C E9 83
   0.089991 1  300             Rx   d 8 B6 65 D9 C5 19 DD BE 2F
   1.793654 1  3E0             Rx   d 8 A3 58 12 86 A0 EA D8 4C
   0.361317 1  400             Rx   d 8 3A 32 9D 2C 90 13 80 E3
   0.180091 1  4CC             Rx   d 8 73 D3 46 4B A7 B5 19 39
   0.896517 1  500             Rx   d 8 C3 30 6C 28 1E 04 78 64
   0.449278 1  600             Rx   d 8 E0 8F 03 84 41 EB F0 1E
   0.189005 1  100             Rx   d 8 55 4D 85 E3 B4 56 69 DA
   0.378296 1  1FF             Rx   d 8 A4 B1 6A 0C A6 E4 66 7B
   0.285482 1  200             Rx   d 8 53 0B 13 E1 23 16 DD 3B
   0.940839 1  2AB             Rx   d 8 10 5D 1F 27 25 0C 9B C6
   0.094852 1  300             Rx   d 8 4B 94 7E 67 F1 00 81 3E
   1.895083 1  3E0             Rx   d 8 44 1A 95 1A 30 BF 2D F6
   0.381672 1  400             Rx   d 8 1E 3A ED 46 B3 CA B3 2F
   0.190260 1  4CC             Rx   d 8 61 CD 67 E5 34 C2 F9 13
   0.947599 1  500             Rx   d 8 A3 51 29 73 F5 6F 8A 3F
   0.474680 1  600             Rx   d 8 88 6B 2E 19 F5 FD 89 E7
   0.199129 1  100             Rx   d 8 19 E7 C1 B9 2E A8 B0 56
   0.398800 1  1FF             Rx   d 8 30 4E 2D C7 75 AE 4F 53
   0.300964 1  200             Rx   d 8 87 0C FE 90 E3 01 BE EE
   0.989936 1  2AB             Rx   d 8 C1 63 F1 E6 DB 13 6E C7
   0.099983 1  300             Rx   d 8 BD 08 31 2B 18 D3 6B E3
   1.995789 1  3E0             Rx   d 8 55 21 A0 BE 69 1F 85 BB
   0.402213 1  400             Rx   d 8 40 77 A1 B6 33 23 6C 5B
   0.200542 1  4CC             Rx   d 8 BC CE 84 F1 83 BC 13 D1
   0.997646 1  500             Rx   d 8 63 20 8B 2E 49 BC C4 B5
   0.499597 1  600             Rx   d 8 63 73 53 19 B6 2E D4 41
   0.208844 1  100             Rx   d 8 56 B6 FF 65 7F 93 11 76
   0.418318 1  1FF             Rx   d 8 9F F4 36 5E 40 34 35 97
   0.315652 1  200             Rx   d 8 B8 5B DF 42 99 FE A7 1F
   1.040193 1  2AB             Rx   d 8 99 5E C4 AE 4C AA F8 3E
   0.104963 1  300             Rx   d 8 A4 D1 F9 0B 99 97 7A 27
   2.093954 1  3E0             Rx   d 8 9B 68 7A 96 B5 16 23 45
   0.422415 1  400             Rx   d 8 C3 10 94 7B 8C 25 78 EC
   0.210330 1  4CC             Rx   d 8 05 75 C8 2C 56 5C 19 BB
   1.049362 1  500             Rx   d 8 D6 79 EA 9F F3 DB D5 AA
   0.525096 1  600             Rx   d 8 1A B7 E2 2D 72 33 45 85
   0.219016 1  100             Rx   d 8 B9 09 9C 5D E3 70 49 2D
   0.437632 1  1FF             Rx   d 8 DC 7F EF FD 7D 26 11 E6
   0.330388 1  200             Rx   d 8 79 24 7D 57 4E FE C8 1B
   1.091265 1  2AB             Rx   d 8 63 FB 3D 0E 7B FB B1 68
   0.110114 1  300             Rx   d 8 C8 B8 41 31 B2 7D 25 44
   2.194301 1  3E0             Rx   d 8 CB D8 53 89 1F 0B 31 FF
   0.441797 1  400             Rx   d 8 47 20 00 FC CD CF 39 75
   0.220659 1  4CC             Rx   d 8 61 06 D3 43 9C 16 80 C3
   1.100466 1  500             Rx   d 8 CC CC 1D 6A BF AF 82 F5
   0.549722 1  600             Rx   d 8 69 D1 24 7E CE 3E 5D 19
   0.228929 1  100             Rx   d 8 95 C5 01 5C 3A 22 4F F8
   0.458255 1  1FF             Rx   d 8 AF E3 77 16 79 C7 22 52
   0.345812 1  200             Rx   d 8 63 12 0D A8 F4 79 EE A9
   1.142007 1  2AB             Rx   d 8 6F 87 AB C0 59 E5 FE C2
   0.115164 1  300             Rx   d 8 F2 CA 66 AD 26 C9 91 8A
   2.295542 1  3E0             Rx   d 8 FD B5 AB 25 F3 5A E7 32
   0.462116 1  400             Rx   d 8 C0 4B 0C 9B 82 9F 7C 53
   0.230778 1  4CC             Rx   d 8 ED D5 AA E0 EE B5 06 69
   1.149238 1  500             Rx   d 8 DF 2C C3 EB DE 19 9F 0C
   0.574079 1  600             Rx   d 8 9E 81 61 DE CD B5 23 CD
   0.238799 1  100             Rx   d 8 B3 97 80 EE 98 E8 A9 32
   0.478719 1  1FF             Rx   d 8 C7 46 9F 9D 76 F2 52 88
   0.360315 1  200             Rx   d 8 89 B1 E0 8F 0B 52 55 04
   1.192013 1  2AB             Rx   d 8 9D 7F FD 7C 17 4A 03 B5
   0.120298 1  300             Rx   d 8 9F 8A FF A2 44 8E 50 86
   2.396082 1  3E0             Rx   d 8 1E 3D B5 12 A6 36 05 BB
   0.481497 1  400             Rx   d 8 A9 69 55 14 5E EB 71 18
   0.240589 1  4CC             Rx   d 8 92 CA D2 A8 6B 14 40 11
   1.199278 1  500             Rx   d 8 E7 C5 95 86 9C 11 11 03
   0.598210 1  600             Rx   d 8 B5 57 F7 64 3A 8D B5 57
   0.248613 1  100             Rx   d 8 2B 17 7A 5D 9F 79 DC 05
   0.498551 1  1FF             Rx   d 8 92 42 00 95 0F 17 F6 2F
   0.375815 1  200             Rx   d 8 61 3E C4 69 E1 BF B5 1B
   1.242893 1  2AB             Rx   d 8 E9 5E 3C 52 98 F7 61 5A
   0.125450 1  300             Rx   d 8 6B A3 B2 1C 4C C2 D9 73
   2.495854 1  3E0             Rx   d 8 4D 6A 39 21 29 A5 BA 16
   0.501264 1  400             Rx   d 8 1A 0A 7C C2 DB D5 2C 4D
   0.250722 1  4CC             Rx   d 8 0E 22 64 82 C3 22 A9 7A
   1.249174 1  500             Rx   d 8 B0 36 B5 91 62 F2 AB 62
   0.623288 1  600             Rx   d 8 C3 51 48 98 12 98 4E 95
   0.258517 1  100             Rx   d 8 94 C5 CA C1 AD 32 0A 2E
   0.519231 1  1FF             Rx   d 8 F8 5E C0 6C 4A 59 F6 D4
   0.391225 1  200             Rx   d 8 AD CB 24 DD 04 A4 7B 45
   1.293756 1  2AB             Rx   d 8 B7 97 87 C0 E7 8F A0 5C
   0.130353 1  300             Rx   d 8 B1 13 01 D9 0B B3 06 B0
   2.597585 1  3E0             Rx   d 8 6C 5B 9A B7 DF 1B E7 DF
   0.520694 1  400             Rx   d 8 D4 F1 6D 42 C7 62 B2 8E
   0.260896 1  4CC             Rx   d 8 12 58 03 E2 C8 25 2E B4
   1.298550 1  500             Rx   d 8 AD 95 1B 0B A4 2F 0A 9A
   0.648398 1  600             Rx   d 8 85 50 8F 27 6A 56 A3 0C
   0.268202 1  100             Rx   d 8 97 08 9A EE F1 83 A9 C0
   0.539025 1  1FF             Rx   d 8 CF 22 D9 53 B1 24 D3 FE
   0.406510 1  200             Rx   d 8 1A C1 AB FD 77 4F E2 70
   1.344011 1  2AB             Rx   d 8 0E 6F 30 59 93 00 D6 BF
   0.135522 1  300             Rx   d 8 F3 80 ED 45 75 A9 6C 9A
   2.698526 1  3E0             Rx   d 8 2A BB 92 05 06 85 2D 62
   0.540866 1  400             Rx   d 8 1A 37 67 6B 44 5D 7B 30
   0.271097 1  4CC             Rx   d 8 2F 4A 9C 70 52 15 69 BB
   1.347780 1  500             Rx   d 8 ED 58 CE B3 21 2A 65 0B
   0.674025 1  600             Rx   d 8 4F D1 CB 70 91 EE CD DB
   0.278472 1  100             Rx   d 8 8F 1F 88 2E BB DD 39 50
   0.559613 1  1FF             Rx   d 8 FC DF 2D F7 A8 A0 E0 68
   0.421257 1  200             Rx   d 8 4F BF D4 AF F6 A7 F3 CC
   1.392733 1  2AB             Rx   d 8 D2 4E 79 CC A7 88 67 FD
   0.140636 1  300             Rx   d 8 79 7F 55 75 A7 B9 2D EF
   2.796466 1  3E0             Rx   d 8 DE 20 61 8B 95 77 1C 5E
   0.560572 1  400             Rx   d 8 28 78 15 23 0B 2D C3 A1
   0.280974 1  4CC             Rx   d 8 A7 87 97 A6 E5 8A 75 91
   1.396734 1  500             Rx   d 8 0A 0F 98 8C 66 06 58 66
   0.699893 1  600             Rx   d 8 D8 C5 42 4C FB 97 87 8E
   0.288455 1  100             Rx   d 8 0B 26 8E 1B 8E 62 5C 6F
   0.579948 1  1FF             Rx   d 8 6B 0F 35 8C 85 B6 D0 B8
   0.436668 1  200             Rx   d 8 B0 0A 9B A5 46 00 18 09
   1.442158 1  2AB             Rx   d 8 D9 2C CF 3A 83 8E E4 EF
   0.145519 1  300             Rx   d 8 47 1A F7 AF 89 9A 17 70
   2.893653 1  3E0             Rx   d 8 88 A4 02 2E AD 49 9F 6B
   0.580211 1  400             Rx   d 8 E5 4E 12 ED 2A 5E 33 5B
   0.290674 1  4CC             Rx   d 8 76 C1 44 29 15 5F F3 3C
   1.448010 1  500             Rx   d 8 08 96 3E A8 2F 38 3E F5
   0.725154 1  600             Rx   d 8 E3 71 41 5C 61 EE C2 13
   0.298559 1  100             Rx   d 8 AB A1 3D 66 9C FC DF D4
   0.599713 1  1FF             Rx   d 8 3B 64 63 94 E7 89 06 78
   0.451478 1  200             Rx   d 8 79 83 EE 0B BA 8C E9 D2
   1.491374 1  2AB             Rx   d 8 BE 9C 68 C2 79 1C 42 CD
   0.150432 1  300             Rx   d 8 2D 09 E1 6E 81 CE 39 67
   2.991292 1  3E0             Rx   d 8 11 9C 55 B0 C7 63 64 67
   0.599850 1  400             Rx   d 8 3D 51 51 E6 22 D0 95 38
   0.300533 1  4CC             Rx   d 8 47 D5 05 79 0B A9 6B 20
   1.499112 1  500             Rx   d 8 CC C5 1A 8A FC 93 30 D5
   0.750014 1  600             Rx   d 8 E9 D1 27 DC B1 D1 7C 0E
   0.308602 1  100             Rx   d 8 6F F0 EB 29 2A 6C 7F 0B
   0.620048 1  1FF             Rx   d 8 D0 13 6D 1B ED 5A 49 80
   0.466218 1  200             Rx   d 8 0F A6 18 21 BB 02 D2 98
   1.540960 1  2AB             Rx   d 8 92 BA 40 9F F2 4A 3D 20
   0.155533 1  300             Rx   d 8 22 02 29 98 BE F0 65 9F
   3.094756 1  3E0             Rx   d 8 20 34 6F EF 7B 3E 94 16
   0.619654 1  400             Rx   d 8 69 EF 4A 8F 78 89 5E 66
   0.310319 1  4CC             Rx   d 8 8C BA D3 85 A4 7E 37 7A
   1.547462 1  500             Rx   d 8 2E 91 AF 2E CD 79 CA 6E
   0.775128 1  600             Rx   d 8 4C 4E 3B 53 84 76 EB 0E
   0.318296 1  100             Rx   d 8 64 18 93 1D 5E 2B F0 6B
   0.639536 1  1FF             Rx   d 8 C2 41 FE 6A CF 2E EC BA
   0.480850 1  200             Rx   d 8 77 D7 C6 E7 BC FF 6B 8A
   1.589979 1  2AB             Rx   d 8 2C 39 23 7B F1 D0 03 73
   0.160449 1  300             Rx   d 8 09 64 6C 2E C1 A2 AD FA
   3.195655 1  3E0             Rx   d 8 CE 93 8A 4E 86 D5 D1 F7
   0.639814 1  400             Rx   d 8 62 55 9E EC B7 C9 CE C0
   0.319977 1  4CC             Rx   d 8 CA 62 2B 2E D0 1E ED 8A
   1.596815 1  500             Rx   d 8 15 13 2E DD 36 33 3D 6D
   0.800297 1  600             Rx   d 8 0B 2D 09 0E 8B 09 70 A0
   0.328243 1  100             Rx   d 8 C7 81 22 87 05 F9 DA 83
   0.658978 1  1FF             Rx   d 8 14 0A 5D 6D AF 14 B2 14
   0.495331 1  200             Rx   d 8 05 07 9B 92 46 3A 77 F2
   1.639080 1  2AB             Rx   d 8 01 6F 42 C0 A8 80 F2 3C
   0.165483 1  300             Rx   d 8 9E 1A 28 70 C8 A9 BA 61
   3.294413 1  3E0             Rx   d 8 D1 EE BD 08 BC DB 91 56
   0.659759 1  400             Rx   d 8 B0 9D 1E 1C 84 13 F7 F2
   0.330284 1  4CC             Rx   d 8 A0 4B 66 BE 1D 5C 9E 92
   1.645118 1  500             Rx   d 8 9A 76 1F 2D 9B 4E 5E 37
   0.824626 1  600             Rx   d 8 91 17 9F 50 65 A7 4E EC
   0.338309 1  100             Rx   d 8 70 5E 94 49 5B BC 2D A5
   0.678468 1  1FF             Rx   d 8 69 17 92 10 0F C0 59 2D
   0.510168 1  200             Rx   d 8 7B 9E 1D 7A F1 99 93 E6
   1.690396 1  2AB             Rx   d 8 A4 69 E5 C4 2C 7C 77 99
   0.170367 1  300             Rx   d 8 07 FF 95 B1 03 EA 1D 92
   3.391632 1  3E0             Rx   d 8 B1 18 80 5E 25 61 4D 46
   0.680168 1  400             Rx   d 8 88 C4 ED C2 C2 1A A3 6E
   0.340180 1  4CC             Rx   d 8 40 DA 82 D3 4C CF 6E 2C
   1.693963 1  500             Rx   d 8 C2 DB 28 AB 06 D6 80 AE
   0.848969 1  600             Rx   d 8 76 0F BE D2 02 71 DB D7
   0.348389 1  100             Rx   d 8 70 6E 2E EA F7 CA 69 47
   0.697937 1  1FF             Rx   d 8 E9 C7 7A D7 3B 8B 7D B7
   0.525135 1  200             Rx   d 8 E3 86 AE 31 96 2A 96 FA
   1.740373 1  2AB             Rx   d 8 D9 48 C9 D9 56 86 69 30
   0.175275 1  300             Rx   d 8 70 72 48 4D C7 C7 EB AC
   3.494983 1  3E0             Rx   d 8 71 C0 77 FB AB C2 FC 94
   0.699626 1  400             Rx   d 8 E2 71 D0 7B 75 52 D2 CA
   0.350017 1  4CC             Rx   d 8 A4 99 45 6D 94 A5 18 DB
   1.745088 1  500             Rx   d 8 96 CB 82 D4 A8 35 8F 0D
   0.874394 1  600             Rx   d 8 76 C5 47 F6 1D 25 AD 64
   0.358671 1  100             Rx   d 8 5B F1 9B 15 A6 AE 64 C3
   0.718167 1  1FF             Rx   d 8 C4 31 96 11 76 D1 31 10
   0.540609 1  200             Rx   d 8 9B 29 21 05 08 FC 80 77
   1.789018 1  2AB             Rx   d 8 5B 54 81 09 7B 62 88 CC
   0.180249 1  300             Rx   d 8 9D 6A 45 9B 02 57 05 19
   3.598054 1  3E0             Rx   d 8 64 F3 40 0B 3A E3 2E 6A
   0.719685 1  400             Rx   d 8 C8 7A 01 3D 7E 98 AE A8
   0.359708 1  4CC             Rx   d 8 59 3F D5 A8 AF 45 3B 63
   1.795694 1  500             Rx   d 8 71 E9 33 0F F4 97 A3 3A
   0.899629 1  600             Rx   d 8 72 11 1B B7 BB FF 11 EC
   0.368795 1  100             Rx   d 8 6E 16 A8 CB 61 5A 88 9E
   0.738005 1  1FF             Rx   d 8 D0 8C 1C 54 2D 56 5D 60
   0.555387 1  200             Rx   d 8 C6 F5 95 F4 4C EF AE 70
   1.840565 1  2AB             Rx   d 8 7B 1D DF 52 8A 7E A9 FA
   0.185219 1  300             Rx   d 8 3E 0F AA 09 8D CB 13 02
   3.699710 1  3E0             Rx   d 8 B5 2F 79 06 EC 6D 19 31
   0.739971 1  400             Rx   d 8 7E 8E F0 8A 1F E0 8C 8A
   0.369482 1  4CC             Rx   d 8 A6 42 6C 66 0C 41 AE 0C
   1.846515 1  500             Rx   d 8 4A 20 22 99 50 AA CB 16
   0.925391 1  600             Rx   d 8 F0 C9 35 89 48 4D 4B 9A
   0.378869 1  100             Rx   d 8 39 17 E2 E3 39 7D 6F 88
   0.757626 1  1FF             Rx   d 8 21 16 9B A4 8D BC 99 54
   0.570587 1  200             Rx   d 8 EB 3D 3C 11 AE 52 16 47
   1.891126 1  2AB             Rx   d 8 81 89 59 FD 88 8E 8E 20
   0.190232 1  300             Rx   d 8 54 60 94 18 20 2B 2B 93
   3.798362 1  3E0             Rx   d 8 71 57 ED B6 65 70 43 BE
   0.760188 1  400             Rx   d 8 AA 7E 57 BD 2A F2 78 30
   0.379579 1  4CC             Rx   d 8 14 FD 54 F3 0A 8B 37 AF
   1.897198 1  500             Rx   d 8 47 03 33 5E 0E A9 54 7E
   0.950682 1  600             Rx   d 8 9F 95 77 6B 42 AD D2 5D
   0.389046 1  100             Rx   d 8 56 87 8F DD 70 EC 38 DD
   0.776950 1  1FF             Rx   d 8 5B D2 1C 8F 1B 37 33 FB
   0.585738 1  200             Rx   d 8 1B 19 21 E7 9C B6 7C D9
   1.940052 1  2AB             Rx   d 8 30 60 BB B7 02 05 07 7D
   0.195116 1  300             Rx   d 8 87 DD AE 8C E5 8A 4D DB
   3.897535 1  3E0             Rx   d 8 FD 29 E1 60 E7 28 4E 92
   0.780675 1  400             Rx   d 8 78 7A BC 6A 25 DB 80 AF
   0.389642 1  4CC             Rx   d 8 34 ED DB B3 6A 98 0F 3D
   1.947881 1  500             Rx   d 8 B5 CD 1D 7D 3C 1A 63 0C
   0.975752 1  600             Rx   d 8 53 B2 52 2C 32 EA 1C 1C
   0.398773 1  100             Rx   d 8 BB 59 0F F8 41 C5 CE AF
   0.796703 1  1FF             Rx   d 8 83 60 5C 80 7A AA B8 8A
   0.601033 1  200             Rx   d 8 AE EA 14 EF 52 0E C5 7A
   1.991076 1  2AB             Rx   d 8 19 78 B6 A8 1A 71 AB E5
   0.200147 1  300             Rx   d 8 75 30 3C AC 68 9C 9A C3
   3.999744 1  3E0             Rx   d 8 F8 9A 8A F6 0D 92 43 F5
   0.801033 1  400             Rx   d 8 7B 11 0A F2 05 01 B2 1B
   0.399515 1  4CC             Rx   d 8 6E 71 98 36 43 88 BD D7
   1.998291 1  500             Rx   d 8 19 B3 A4 C4 CD DD 59 A9
   1.000042 1  600             Rx   d 8 6A 8B 1F 1D 8C 5A C8 6E
   0.408426 1  100             Rx   d 8 B8 67 D3 DF B8 DD 7D B2
   0.817383 1  1FF             Rx   d 8 EA 3C F9 B9 95 81 9C 96
   0.615716 1  200             Rx   d 8 C4 F7 96 97 8B 2C 48 4E
   2.041765 1  2AB             Rx   d 8 BB 8A B5 B6 73 81 1D 0B
   0.204994 1  300             Rx   d 8 90 E5 7C 4C 17 E2 89 F7
   4.099525 1  3E0             Rx   d 8 66 D8 6C 28 37 D2 65 20
   0.820977 1  400             Rx   d 8 4E 0C 1F C5 78 33 46 7B
   0.409762 1  4CC             Rx   d 8 11 C9 7B 8F 67 5D 28 CA
   2.050035 1  500             Rx   d 8 C7 50 3F 19 DE 1F BB CE
   1.024640 1  600             Rx   d 8 17 71 2B 32 D0 51 D1 81
   0.418545 1  100             Rx   d 8 D0 5A 24 3D A6 09 DF 23
   0.837294 1  1FF             Rx   d 8 84 71 FD E5 68 AB 46 84
   0.631227 1  200             Rx   d 8 ED 40 23 38 33 C6 E0 01
   2.090600 1  2AB             Rx   d 8 25 6B 22 54 01 BF 97 2A
   0.209942 1  300             Rx   d 8 F7 B3 DD BE 53 73 15 1F
   4.199613 1  3E0             Rx   d 8 3A C7 CE 02 7C 07 B7 42
   0.840637 1  400             Rx   d 8 44 69 48 B6 5E C8 47 91
   0.419987 1  4CC             Rx   d 8 09 D5 69 0F 08 82 98 3D
   2.099128 1  500             Rx   d 8 8B F3 06 49 77 9C 28 B9
   1.049168 1  600             Rx   d 8 CA 54 67 B6 70 08 3B 05
   0.428387 1  100             Rx   d 8 28 38 78 3E EE DC 0B 6C
   0.857618 1  1FF             Rx   d 8 CA A8 8D FC 69 96 35 5A
   0.646529 1  200             Rx   d 8 1D A8 BF E1 86 54 DC 02
   2.138956 1  2AB             Rx   d 8 79 6B 76 7E FF ED F5 58
   0.214928 1  300             Rx   d 8 39 18 A5 B4 57 DD 1F 28
   4.300114 1  3E0             Rx   d 8 52 37 3C AD 41 50 C1 1D
   0.860641 1  400             Rx   d 8 DC FF B7 4A 84 1A 7D FA
   0.429658 1  4CC             Rx   d 8 04 44 CE 71 4B 62 3F EC
   2.150799 1  500             Rx   d 8 CE EC DB 00 3C C7 1A 19
   1.074711 1  600             Rx   d 8 45 EF 8B 26 3D 42 72 D6
   0.438372 1  100             Rx   d 8 89 4B E6 5B 16 26 96 3F
   0.877211 1  1FF             Rx   d 8 9E CB 0A 74 1F B0 93 00
   0.661819 1  200             Rx   d 8 06 58 7A 9D A5 40 63 97
   2.189601 1  2AB             Rx   d 8 97 0C B6 91 7D 41 95 33
   0.219947 1  300             Rx   d 8 C5 3D 41 6E DC 77 F3 33
   4.397722 1  3E0             Rx   d 8 6E 09 8C E0 99 63 3A A8
   0.880003 1  400             Rx   d 8 64 BE 8D DB 76 E7 F2 F5
   0.439710 1  4CC             Rx   d 8 D0 2D 83 7A 2A F0 71 52
   2.201804 1  500             Rx   d 8 2F FE 33 0D 5E AA 34 83
   1.099826 1  600             Rx   d 8 CA 4A 7A 18 88 79 41 08
   0.448581 1  100             Rx   d 8 1D 7E F9 B6 F4 3D 32 1A
   0.896854 1  1FF             Rx   d 8 9C 4A F0 E7 D5 8A 1F 7C
   0.677070 1  200             Rx   d 8 0F B1 AD 07 5B AB F5 0A
   2.239695 1  2AB             Rx   d 8 ED D8 6B 44 0B C8 62 46
   0.225002 1  300             Rx   d 8 9E B9 A8 B1 38 8F DD 09
   4.498856 1  3E0             Rx   d 8 46 8E 29 49 40 D3 58 67
   0.900327 1  400             Rx   d 8 16 8C 6B CB 10 62 DE E6
   0.450033 1  4CC             Rx   d 8 C7 1D 37 5A D9 03 B2 0D
   2.250658 1  500             Rx   d 8 3C 15 A4 94 80 37 DC A9
   1.124599 1  600             Rx   d 8 66 27 9D D0 F8 9B 20 38
   0.458696 1  100             Rx   d 8 03 92 10 FF 4A 77 F3 79
   0.916983 1  1FF             Rx   d 8 A4 F7 10 83 09 45 BB 0B
   0.691728 1  200             Rx   d 8 1B 3D 19 F6 44 BC 28 42
   2.289096 1  2AB             Rx   d 8 12 ED 2C 7F 97 29 E4 58
   0.229889 1  300             Rx   d 8 A8 C1 89 35 6E 8D C0 0D
   4.597168 1  3E0             Rx   d 8 87 D2 D8 D8 3B BA 3E 1E
   0.919761 1  400             Rx   d 8 5E 9A F5 38 DB E1 6D D6
   0.459897 1  4CC             Rx   d 8 57 35 2D AD EC 5A DC 3A
   2.301056 1  500             Rx   d 8 57 0C F4 E5 43 D9 C7 90
   1.149334 1  600             Rx   d 8 93 A4 F1 A6 20 A5 DC 0A
   0.468807 1  100             Rx   d 8 EB 53 00 14 D7 16 6D 41
   0.936330 1  1FF             Rx   d 8 3D B2 F4 57 5E 4D BD 8C
   0.706419 1  200             Rx   d 8 7F 95 B3 E9 EF 96 93 7B
   2.339023 1  2AB             Rx   d 8 5F B2 74 02 11 04 4F E2
   0.234742 1  300             Rx   d 8 49 D1 F0 A2 AE 6E 0A 67
   4.695496 1  3E0             Rx   d 8 13 E1 18 08 AC B5 F7 5D
   0.940225 1  400             Rx   d 8 CD C2 81 98 20 EC 76 A7
   0.469578 1  4CC             Rx   d 8 11 BF 02 79 88 E8 C9 40
   2.350919 1  500             Rx   d 8 DD D8 4A E4 8F 9E 99 24
   1.174569 1  600             Rx   d 8 52 E0 72 34 85 CD F6 83
   0.478813 1  100             Rx   d 8 49 F8 46 4D 32 CF 0A CF
   0.955916 1  1FF             Rx   d 8 EA 90 AA CE 50 DC 20 60
   0.721935 1  200             Rx   d 8 5D 46 B9 C3 4D B0 AF A4
   2.389300 1  2AB             Rx   d 8 77 80 D2 9F 93 37 8C 5A
   0.239789 1  300             Rx   d 8 E4 7B 4F 87 4B A4 92 89
   4.792834 1  3E0             Rx   d 8 DA 81 19 24 D6 DF B7 E9
   0.960882 1  400             Rx   d 8 E3 B2 DE 09 07 A9 65 27
   0.479727 1  4CC             Rx   d 8 68 F8 DA 76 26 00 D1 1F
   2.400802 1  500             Rx   d 8 02 DF F2 47 7A D3 4B 90
   1.200352 1  600             Rx   d 8 BA 53 0E 57 AF 11 73 51
   0.488671 1  100             Rx   d 8 95 6E E8 A2 9C 99 81 39
   0.975793 1  1FF             Rx   d 8 75 AA B8 25 21 A4 0F F9
   0.737038 1  200             Rx   d 8 64 D8 72 21 4B 6E E2 93
   2.438306 1  2AB             Rx   d 8 68 45 BC 84 AF C8 A5 B9
   0.244794 1  300             Rx   d 8 05 2C 98 4E 38 87 D1 63
   4.892280 1  3E0             Rx   d 8 96 83 37 F5 CC D5 C9 F4
   0.981503 1  400             Rx   d 8 9E 69 74 FE C4 46 91 18
   0.489982 1  4CC             Rx   d 8 7A F5 66 A7 B7 2D 6F 1F
   2.451282 1  500             Rx   d 8 FC 5A AB 22 19 EF 97 20
   1.224655 1  600             Rx   d 8 7C 67 DC 23 81 8D 17 D4
   0.498695 1  100             Rx   d 8 7D 7A DC D5 19 EB 98 2E
   0.996164 1  1FF             Rx   d 8 73 16 9D 2D 8B 0D EA AB
   0.752131 1  200             Rx   d 8 E0 1F 38 22 6B 2A EF 7C
   2.488416 1  2AB             Rx   d 8 89 75 4B 2F 72 4D B5 C9
   0.249913 1  300             Rx   d 8 D9 41 0B F4 11 D9 1E 3A
   4.990918 1  3E0             Rx   d 8 1F B8 AF EF B9 08 3B 7A
   1.001421 1  400             Rx   d 8 A1 CF 17 02 31 3D 1D F7
   0.499989 1  4CC             Rx   d 8 04 FE 06 24 71 B1 CD A1
   2.501179 1  500             Rx   d 8 F0 CF 0B 38 AE 95 E7 7A
   1.250373 1  600             Rx   d 8 96 53 49 4F 75 B3 3E 66
   0.508683 1  100             Rx   d 8 03 23 74 70 77 10 3A 55
   1.016681 1  1FF             Rx   d 8 DF 79 06 39 59 44 33 55
   0.767030 1  200             Rx   d 8 06 AE 00 24 C9 7D 83 0D
   2.539933 1  2AB             Rx   d 8 BB D3 E1 28 C3 EF 91 75
   0.254779 1  300             Rx   d 8 91 0C BA FA BD 58 1D C8
   5.089155 1  3E0             Rx   d 8 DF F9 CF A8 49 01 CE 07
   1.021180 1  400             Rx   d 8 D5 49 68 65 5F F3 58 DF
   0.509872 1  4CC             Rx   d 8 26 FF EE 5A CC 23 C5 29
   2.549501 1  500             Rx   d 8 7A F6 64 8A 05 F8 4D 26
   1.276157 1  600             Rx   d 8 AC B5 7A 84 94 77 2F 7A
   0.518507 1  100             Rx   d 8 9E 64 84 BE 97 EA 74 B4
   1.037112 1  1FF             Rx   d 8 69 96 23 8E 5E C2 75 F0
   0.782279 1  200             Rx   d 8 F2 D2 6C 35 28 FE C9 6A
   2.589239 1  2AB             Rx   d 8 40 88 F7 A8 94 26 79 97
   0.259861 1  300             Rx   d 8 50 5D 59 42 AB DC 38 98
   5.189765 1  3E0             Rx   d 8 6F 7D 73 CF 38 7D 46 42
   1.041346 1  400             Rx   d 8 AA 7E D1 8D A0 29 8B DA
   0.519717 1  4CC             Rx   d 8 2D 65 2B CB AF 04 4C FB
   2.598291 1  500             Rx   d 8 AE 9B AC 78 C9 B4 30 06
   1.301266 1  600             Rx   d 8 2D A0 2A 5F FB B2 2B 3B
   0.528711 1  100             Rx   d 8 B9 8E 07 55 05 19 43 8A
   1.056625 1  1FF             Rx   d 8 66 F0 93 D6 8D C2 D1 C1
   0.797340 1  200             Rx   d 8 1F DF 4F FB 69 12 85 1E
   2.640751 1  2AB             Rx   d 8 E1 52 7C C1 0A A3 14 5F
   0.264898 1  300             Rx   d 8 F8 D2 7C 76 51 A2 0F F3
   5.290239 1  3E0             Rx   d 8 DD 8F F3 4C 12 60 98 B3
   1.061391 1  400             Rx   d 8 06 90 53 3B 18 07 B3 77
   0.530054 1  4CC             Rx   d 8 B7 80 29 56 13 E6 9D B8
   2.647645 1  500             Rx   d 8 FD 8D 5F 76 04 D4 93 18
   1.326031 1  600             Rx   d 8 A2 42 73 6C 8E 7C F4 38
   0.538831 1  100             Rx   d 8 69 9D EC 33 B1 0A 86 55
   1.077243 1  1FF             Rx   d 8 C9 CE B8 9B 6A 4E AC E0
   0.812523 1  200             Rx   d 8 2C 27 84 F9 44 A8 E5 75
   2.689999 1  2AB             Rx   d 8 B5 D5 53 2B 11 9D 63 A3
   0.269903 1  300             Rx   d 8 E4 D3 54 AC 39 E7 55 44
   5.387015 1  3E0             Rx   d 8 1C 93 75 B4 94 70 72 5A
   1.081379 1  400             Rx   d 8 F5 4E 4E 2B B8 5F CC 0E
   0.539984 1  4CC             Rx   d 8 13 99 DB 0C 1D 16 BC 89
   2.696471 1  500             Rx   d 8 36 F4 B9 20 3A FC D9 A6
   1.350693 1  600             Rx   d 8 50 22 CF CE 21 49 A0 3E
   0.548595 1  100             Rx   d 8 BD 2A 62 C0 29 A0 67 F8
   1.096721 1  1FF             Rx   d 8 5B 77 D6 ED 1C 3D B0 EA
   0.827609 1  200             Rx   d 8 72 6D F4 A0 27 9A 0C 68
   2.738606 1  2AB             Rx   d 8 1D 8A 80 86 64 89 2D A1
   0.274851 1  300             Rx   d 8 38 DF A8 20 C0 1C B4 04
   5.485237 1  3E0             Rx   d 8 91 B6 6D C6 4B 30 B9 E7
   1.101124 1  400             Rx   d 8 4D 75 B0 35 0D EE 04 CF
   0.549959 1  4CC             Rx   d 8 99 FB 81 D5 FB BA 4D 99
   2.747889 1  500             Rx   d 8 55 DD A6 AA A6 99 45 27
   1.375119 1  600             Rx   d 8 A8 17 16 43 D9 3A 79 7B
   0.558863 1  100             Rx   d 8 6A 44 1A EE 67 49 52 28
   1.116565 1  1FF             Rx   d 8 02 BE DE AE 11 6F 8C 9D
   0.842894 1  200             Rx   d 8 6B D5 87 93 34 BA 3F 67
   2.788783 1  2AB             Rx   d 8 DF E7 1B CE 4C 61 F8 FD
   0.279979 1  300             Rx   d 8 D5 32 04 78 B0 7A 0A AA
   5.585549 1  3E0             Rx   d 8 83 DF 48 85 D8 1E 2B C4
   1.120695 1  400             Rx   d 8 54 B3 97 66 AA E2 28 9A
   0.560308 1  4CC             Rx   d 8 9D 58 F8 94 E1 AF 3A 7A
   2.798261 1  500             Rx   d 8 50 A0 80 33 7B C0 C3 F6
   1.399641 1  600             Rx   d 8 87 05 B6 F9 0A 61 A7 FE
   0.568685 1  100             Rx   d 8 DE D4 8B F8 95 50 D9 BA
   1.136002 1  1FF             Rx   d 8 9F 7F 6A 75 82 66 46 CE
   0.857666 1  200             Rx   d 8 23 81 47 34 CB EA 3C 37
   2.839990 1  2AB             Rx   d 8 A3 02 57 5A 93 1D 74 C7
   0.284944 1  300             Rx   d 8 73 96 5A 25 ED BF F3 FF
   5.686230 1  3E0             Rx   d 8 C7 00 1F F6 C9 E8 7F 21
   1.140351 1  400             Rx   d 8 BC 10 D9 ED 8E 3A 12 12
   0.570516 1  4CC             Rx   d 8 99 95 3B 50 13 6B D1 BF
   2.847682 1  500             Rx   d 8 A7 F6 DB 3A B7 66 09 AC
   1.425077 1  600             Rx   d 8 FC 87 EC 52 73 C1 B4 2B
   0.578520 1  100             Rx   d 8 7E 2E 87 4E 89 DA FB 25
   1.155763 1  1FF             Rx   d 8 54 94 15 C5 CC E3 89 19
   0.873159 1  200             Rx   d 8 4D 30 55 01 0D 41 29 C0
   2.891566 1  2AB             Rx   d 8 D5 05 92 AA 1C 6F 80 EF
   0.289956 1  300             Rx   d 8 23 34 4C 55 CD 7F 8F F5
   5.785899 1  3E0             Rx   d 8 DE 5E EB 34 E1 BD 2C EB
   1.160559 1  400             Rx   d 8 88 AF CD 7F 64 70 27 63
   0.580720 1  4CC             Rx   d 8 8C 78 87 43 67 BB 26 AA
   2.896552 1  500             Rx   d 8 57 7A ED D3 24 C7 F9 19
   1.450807 1  600             Rx   d 8 4D 8B 8C 3B 88 B9 3E FB
   0.588770 1  100             Rx   d 8 F4 99 12 A3 C0 0E 6E 3F
   1.176124 1  1FF             Rx   d 8 B7 47 A0 A3 4F 38 2E BD
   0.888451 1  200             Rx   d 8 7A 1D CC 12 E5 4A D4 3B
   2.940926 1  2AB             Rx   d 8 D1 3A 2B E4 CF 1D 7F B1
   0.294877 1  300             Rx   d 8 08 A5 A3 B2 36 93 C0 08
   5.884865 1  3E0             Rx   d 8 C2 05 F2 41 F2 B0 24 41
   1.180506 1  400             Rx   d 8 A4 80 5A C2 E2 D7 18 33
   0.591046 1  4CC             Rx   d 8 01 AA 69 87 2B 55 03 30
   2.947549 1  500             Rx   d 8 70 4C 2E DE C5 6B 5D 09
   1.475451 1  600             Rx   d 8 D3 0E 05 4E 21 C0 45 CE
   0.599019 1  100             Rx   d 8 14 6D 00 6F 50 F0 AA 15
   1.195464 1  1FF             Rx   d 8 5F A3 44 44 C5 AF 32 13
   0.903112 1  200             Rx   d 8 9F 0A 8A CE DA A5 D9 78
   2.991497 1  2AB             Rx   d 8 59 89 50 4C 51 AD 3B 77
   0.299756 1  300             Rx   d 8 AB 90 49 0B FB 1C 4A 4B
   5.987459 1  3E0             Rx   d 8 5E 7D 1A 7B 75 1A 59 EE
   1.199999 1  400             Rx   d 8 38 39 2C 75 36 84 5E 34
   0.601050 1  4CC             Rx   d 8 68 EB B3 6F 8A 46 D0 B7
   2.996161 1  500             Rx   d 8 E6 8F 90 B0 B0 58 2E AC
   1.499688 1  600             Rx   d 8 29 05 0B 22 D2 21 95 B0
   0.608691 1  100             Rx   d 8 AE D0 5E AE 15 0C 03 FD
   1.215133 1  1FF             Rx   d 8 07 59 8A BA 48 5E A0 EE
   0.917827 1  200             Rx   d 8 BA F9 CA F9 CC 30 15 4D
   2.995125 1  2AB             Rx   d 8 DA 4F 96 87 98 E1 6A 1B
   0.304648 1  300             Rx   d 8 4E 97 1E 99 05 16 25 D2
   6.090564 1  3E0             Rx   d 8 6C A9 D8 1E CF 2B 1A 86
   1.220422 1  400             Rx   d 8 FB 1E DB 97 A3 04 22 D8
   0.604944 1  4CC             Rx   d 8 C6 FC 48 0A C5 7E 42 DE
   3.047166 1  500             Rx   d 8 11 F2 E8 19 F1 16 D9 B6
   1.524394 1  600             Rx   d 8 6C 6D 9D 16 A7 23 7B 16
   0.618857 1  100             Rx   d 8 09 6A 69 FA 26 16 0B 07
   1.235409 1  1FF             Rx   d 8 41 14 AB 1F 9C BF 11 20
   0.933258 1  200             Rx   d 8 5D 9B A9 33 1F 9C D4 45
   2.997097 1  2AB             Rx   d 8 25 18 82 35 BA FE D7 97
   0.309730 1  300             Rx   d 8 93 A0 88 E7 1D 6F 82 99
   6.192024 1  3E0             Rx   d 8 A5 CF 93 72 8C BA 88 FA
   1.240033 1  400             Rx   d 8 97 6D A2 0B D3 D0 40 2D
   0.607024 1  4CC             Rx   d 8 86 64 AD EC 21 66 D8 9E
   3.096468 1  500             Rx   d 8 40 33 72 85 4A 9E 23 D5
   1.549805 1  600             Rx   d 8 9B 4E D6 FE 10 C0 9A 49
   0.628950 1  100             Rx   d 8 5C 1A 4C 35 C4 7C E3 12
   1.255611 1  1FF             Rx   d 8 A0 5F 4F 64 6E DD 88 BB
   0.948295 1  200             Rx   d 8 E4 0A 7C 59 18 3D B0 A1
   2.999709 1  2AB             Rx   d 8 2C F0 F6 BE 50 2E 13 BC
   0.314566 1  300             Rx   d 8 80 9E 75 09 BF B7 C5 F7
   6.290504 1  3E0             Rx   d 8 97 B3 F5 A2 EF 9C 21 17
   1.260411 1  400             Rx   d 8 A0 B6 E8 CA 73 CD 85 22
   0.610515 1  4CC             Rx   d 8 3F F0 FA 66 25 87 F6 EA
   3.147410 1  500             Rx   d 8 D0 5E 67 59 65 72 51 66
   1.574355 1  600             Rx   d 8 7C 0B E4 8C D3 5F E6 57
   0.639025 1  100             Rx   d 8 BA 52 EB 8A 90 2A C7 14
   1.275203 1  1FF             Rx   d 8 77 63 70 DC D2 4D 3F 16
   0.962884 1  200             Rx   d 8 06 ED 1E B9 0B 25 CF 43
   3.003202 1  2AB             Rx   d 8 E2 EF C7 30 7B CB 97 6F
   0.319492 1  300             Rx   d 8 68 D0 E7 07 9F EE D9 65
   6.392131 1  3E0             Rx   d 8 73 68 9E 0E B1 EC 4D 1E
   1.280230 1  400             Rx   d 8 FB 76 CF 38 EC E4 30 8B
   0.614160 1  4CC             Rx   d 8 6A 90 19 15 7D E4 CC BD
   3.196140 1  500             Rx   d 8 EC B8 DC 46 37 73 E7 D6
   1.598746 1  600             Rx   d 8 CE FD B3 09 64 E4 5C 33
   0.649360 1  100             Rx   d 8 87 53 AC CA E8 3E 92 31
   1.295331 1  1FF             Rx   d 8 36 03 F9 D9 C8 08 25 C0
   0.978045 1  200             Rx   d 8 5A E2 D6 3E A0 8B 36 74
   3.007168 1  2AB             Rx   d 8 44 5E 94 88 75 88 07 36
   0.324492 1  300             Rx   d 8 19 7D 63 BE F3 00 5F A0
   6.495559 1  3E0             Rx   d 8 91 FD 8F CE 8B 43 B1 77
   1.300211 1  400             Rx   d 8 69 04 FB 5C 10 38 59 8D
   0.617024 1  4CC             Rx   d 8 95 93 11 60 A6 AE 6E 84
   3.246430 1  500             Rx   d 8 3B 99 8F 68 C5 71 7D 45
   1.623116 1  600             Rx   d 8 13 13 1D FF BC 42 4E 0A
   0.659041 1  100             Rx   d 8 4F 35 B6 BB 6B 24 2A 4C
   1.314993 1  1FF             Rx   d 8 EC 4B C8 A5 4E F1 24 80
   0.993157 1  200             Rx   d 8 27 D6 B5 1D D3 75 00 28
   3.010608 1  2AB             Rx   d 8 F0 B7 08 B7 C1 1E 26 AA
   0.329518 1  300             Rx   d 8 3C 0C 22 56 75 28 16 A2
   6.592502 1  3E0             Rx   d 8 FE 58 C1 90 A2 6B 4B B5
   1.319687 1  400             Rx   d 8 1C ED 33 40 30 AC 51 DD
   0.618888 1  4CC             Rx   d 8 B5 8D 85 92 03 93 8C 49
   3.297536 1  500             Rx   d 8 DD D4 16 BF 0D 4B 94 30
   1.648318 1  600             Rx   d 8 50 32 FD 83 B9 30 3E 0E
   0.669008 1  100             Rx   d 8 F6 58 9C 5A BC EA 2B DF
   1.335330 1  1FF             Rx   d 8 E6 E1 87 68 29 5C EA FB
   1.008378 1  200             Rx   d 8 B4 D3 3A 5B 52 6E 4A EB
   3.013684 1  2AB             Rx   d 8 90 47 13 CE AB F6 10 59
   0.334597 1  300             Rx   d 8 BA 89 09 3A 6C B5 7B A1
   6.693715 1  3E0             Rx   d 8 80 E1 87 2D BC 0F CB C4
   1.339314 1  400             Rx   d 8 F3 CA 4E 0C BF 09 FA 57
   0.621145 1  4CC             Rx   d 8 EF 83 3B D4 D3 50 5B 21
   3.347026 1  500             Rx   d 8 B3 AB 31 47 32 80 A8 0C
   1.672646 1  600             Rx   d 8 10 1D 1A FC 5B 55 20 6C
   0.678817 1  100             Rx   d 8 29 D2 01 48 5C FF 0D 58
   1.355013 1  1FF             Rx   d 8 CB B4 62 27 E0 9E 78 32
   1.023384 1  200             Rx   d 8 E4 A0 51 27 AB B0 93 32
   3.016835 1  2AB             Rx   d 8 27 60 02 0C 2C A2 0C CA
   0.339740 1  300             Rx   d 8 C9 C1 7B CD 09 0C 48 19
   6.794932 1  3E0             Rx   d 8 9C DC BF B1 3A 2A A4 DC
   1.358740 1  400             Rx   d 8 FB 4F 86 AA 48 B2 DF 62
   0.624529 1  4CC             Rx   d 8 2B 35 5B 87 D0 6A 8C 71
   3.397706 1  500             Rx   d 8 B9 31 EE 74 CD F4 73 FD
   1.697721 1  600             Rx   d 8 B3 EC B3 A0 A5 98 4B E8
   0.688992 1  100             Rx   d 8 5B 07 E3 ED 0A 0A 0A 19
   1.375368 1  1FF             Rx   d 8 4E F9 49 E5 C1 FF BE DA
   1.038869 1  200             Rx   d 8 AC 06 32 65 5D 8D 8A 7E
   3.019820 1  2AB             Rx   d 8 AF F9 2B 1C 33 20 F4 5F
   0.344683 1  300             Rx   d 8 BA C1 96 01 01 68 57 B2
   6.895242 1  3E0             Rx   d 8 48 17 CA 15 77 A2 B6 10
   1.378988 1  400             Rx   d 8 C5 1C 1D 19 11 EA 8C 8C
   0.625806 1  4CC             Rx   d 8 9F C4 E3 AF 48 3C 46 50
   3.446056 1  500             Rx   d 8 36 EE 35 A1 84 EE 0B 4B
   1.723033 1  600             Rx   d 8 CA 0F 3D 42 B2 57 79 8B
   0.698870 1  100             Rx   d 8 2C 52 ED 9E 6B A5 9B DD
   1.395151 1  1FF             Rx   d 8 B9 B7 91 14 6E B7 D9 65
   1.053851 1  200             Rx   d 8 D5 D1 6C C7 7F A9 1F BC
   3.021573 1  2AB             Rx   d 8 AF C7 4B C4 BB E5 AD 4A
   0.349712 1  300             Rx   d 8 9E 38 5A E7 09 51 62 60
   6.995510 1  3E0             Rx   d 8 9D AA BA 9D 93 E0 8C 6A
   1.399263 1  400             Rx   d 8 DF E6 05 B1 AB 1D A8 EC
   0.629774 1  4CC             Rx   d 8 74 D4 2F 3D F6 18 D8 48
   3.495093 1  500             Rx   d 8 31 4C 76 30 BB 51 B5 97
   1.747607 1  600             Rx   d 8 91 CB 89 30 63 35 36 44
   0.708778 1  100             Rx   d 8 34 1A C2 DF 8C 7F 39 21
   1.415052 1  1FF             Rx   d 8 78 95 31 85 F2 5A 7E 14
   1.069107 1  200             Rx   d 8 9A B5 1F D2 56 13 DC 99
   3.022717 1  2AB             Rx   d 8 79 E0 47 D5 03 3C 60 CF
   0.354549 1  300             Rx   d 8 AA 37 0A 35 03 F0 05 5E
   7.092723 1  3E0             Rx   d 8 94 76 D3 44 74 3F 7A D4
   1.419928 1  400             Rx   d 8 52 08 E7 CB 67 95 83 7B
   0.633494 1  4CC             Rx   d 8 92 95 90 EF 70 E4 43 A5
   3.544775 1  500             Rx   d 8 91 BB 4A 5A B8 1D 98 60
   1.772799 1  600             Rx   d 8 2B 2D 96 09 8C C0 41 2D
   0.718956 1  100             Rx   d 8 30 A7 3C 88 69 89 B7 BE
   1.435705 1  1FF             Rx   d 8 A5 3F 30 01 D0 61 2D 14
   1.084508 1  200             Rx   d 8 45 E5 2D 69 C7 86 F4 75
   3.026180 1  2AB             Rx   d 8 69 FA C1 C6 AC 6D 12 0E
   0.359613 1  300             Rx   d 8 C8 78 A7 89 F3 09 0F 89
   7.195498 1  3E0             Rx   d 8 15 F0 49 53 4C B5 D1 8D
   1.440593 1  400             Rx   d 8 1B DA ED CF 59 8F 0F 08
   0.635874 1  4CC             Rx   d 8 38 6E 7B 4E C2 B8 4A E8
   3.594477 1  500             Rx   d 8 DA E2 B3 8D 7F 91 C0 F7
   1.797937 1  600             Rx   d 8 91 2D 5D A4 A4 31 A0 D3
   0.728933 1  100             Rx   d 8 E2 24 1B D6 67 B7 B8 2E
   1.455785 1  1FF             Rx   d 8 F1 CC A7 DE E4 96 8E 85
   1.099408 1  200             Rx   d 8 25 F6 38 97 4E 0F FB 6C
   3.027739 1  2AB             Rx   d 8 62 07 93 9E 75 C4 F2 51
   0.364587 1  300             Rx   d 8 65 E8 56 EA 18 1B 98 B5
   7.298803 1  3E0             Rx   d 8 9E 2B F1 BE 16 27 32 A9
   1.460853 1  400             Rx   d 8 E5 99 58 8A 70 FD A5 03
   0.636914 1  4CC             Rx   d 8 85 3A 45 38 52 BD 4E 16
   3.642942 1  500             Rx   d 8 8A 04 EE 58 82 33 A5 E7
   1.823037 1  600             Rx   d 8 7A 49 77 21 A4 B2 5F 12
   0.738933 1  100             Rx   d 8 97 E3 6D 93 C3 AE 59 18
   1.475280 1  1FF             Rx   d 8 A5 75 75 6A 53 C9 68 8B
   1.114126 1  200             Rx   d 8 4D AD 05 55 FD 4B 93 DA
   3.030299 1  2AB             Rx   d 8 14 45 45 43 58 75 E6 A6
   0.369756 1  300             Rx   d 8 0B DE 7A 01 04 A3 4B B1
   7.401055 1  3E0             Rx   d 8 18 E7 8E 60 33 7C AC 61
   1.480601 1  400             Rx   d 8 85 34 02 94 A5 77 28 37
   0.638118 1  4CC             Rx   d 8 1F FA EF 72 46 C1 BA 84
   3.693865 1  500             Rx   d 8 1B 34 B6 33 75 C4 59 CE
   1.847574 1  600             Rx   d 8 55 86 12 96 12 7A DF 65
   0.748607 1  100             Rx   d 8 AD C2 33 D7 4C E8 58 32
   1.495118 1  1FF             Rx   d 8 03 C5 08 02 03 73 73 84
   1.128609 1  200             Rx   d 8 FB 53 77 0C D8 05 DD 0B
   3.033352 1  2AB             Rx   d 8 EB 5F 5F 42 77 AD 41 15
   0.374899 1  300             Rx   d 8 88 14 2C D2 94 96 6C 45
   7.498367 1  3E0             Rx   d 8 3F 69 3F 77 22 E5 AC 85
   1.500130 1  400             Rx   d 8 8D 39 7F 00 D9 5D 0F ED
   0.641076 1  4CC             Rx   d 8 AB 5C E7 A9 A4 8D 4E AA
   3.742488 1  500             Rx   d 8 BB CA C0 C6 E9 29 CB AC
   1.873039 1  600             Rx   d 8 1F 5C B0 BD 81 E0 4F C0
   0.758579 1  100             Rx   d 8 F5 1D EC 15 18 FE BC 5A
   1.515480 1  1FF             Rx   d 8 E4 D4 33 FD AC A8 B7 F5
   1.143513 1  200             Rx   d 8 81 4C E3 14 C9 E9 5B 54
   3.034867 1  2AB             Rx   d 8 29 0C 2D 36 38 BA 17 65
   0.379979 1  300             Rx   d 8 CC 7B C2 7C 44 E8 7B 44
   7.595968 1  3E0             Rx   d 8 F6 BB C3 21 27 F1 B2 FD
   1.520510 1  400             Rx   d 8 FD A1 3D B4 0B C5 93 CD
   0.642358 1  4CC             Rx   d 8 40 0C 45 42 CC EC E1 CE
   3.792588 1  500             Rx   d 8 6C C8 F1 BD 01 FA 49 B1
   1.897995 1  600             Rx   d 8 DC 4A D8 EB 26 67 02 DB
   0.768318 1  100             Rx   d 8 08 2E 72 D5 F2 2E EA 30
   1.535931 1  1FF             Rx   d 8 5B DE 15 4B B0 87 6D 4D
   1.158501 1  200             Rx   d 8 02 0D 78 7A 65 86 C7 17
   3.038571 1  2AB             Rx   d 8 08 30 B8 B1 EB 82 63 CC
   0.385045 1  300             Rx   d 8 D8 3C F2 0A 39 95 CD A3
   7.698581 1  3E0             Rx   d 8 B5 EB 90 81 B2 BD 54 48
   1.540596 1  400             Rx   d 8 74 5B 67 95 09 2F 1D 07
   0.643513 1  4CC             Rx   d 8 4E 71 0F 49 10 D7 D1 73
   3.843528 1  500             Rx   d 8 36 F1 78 07 D3 84 F0 A3
   1.922146 1  600             Rx   d 8 2D F3 56 B2 08 C1 1B F0
   0.778412 1  100             Rx   d 8 8E D3 8A CB 02 E1 9A 87
   1.556580 1  1FF             Rx   d 8 56 97 37 09 55 07 08 CD
   1.173312 1  200             Rx   d 8 45 1E 4A 71 E2 C9 96 86
   3.039625 1  2AB             Rx   d 8 92 86 18 8A A2 CC CA DA
   0.390157 1  300             Rx   d 8 15 29 DF 79 8A 4A 40 F1
   7.796242 1  3E0             Rx   d 8 74 BF 31 83 61 C3 6E C0
   1.560335 1  400             Rx   d 8 A3 15 D1 4F 56 1B E1 0E
   0.646225 1  4CC             Rx   d 8 0A 6E 7F 90 8E CC FF 51
   3.893831 1  500             Rx   d 8 10 A0 73 6A B0 20 C2 5F
   1.946602 1  600             Rx   d 8 C0 F8 66 40 C8 F9 2B 2D
   0.788490 1  100             Rx   d 8 C5 85 A1 8F BC F3 CD 1A
   1.576393 1  1FF             Rx   d 8 1D B1 C0 35 E9 9E 07 BE
   1.188654 1  200             Rx   d 8 BE 9E DF B2 45 72 32 A2
   3.043558 1  2AB             Rx   d 8 8D C8 8C 5C 31 E0 7E 41
   0.395096 1  300             Rx   d 8 30 F7 C6 DF 71 13 20 E4
   7.898034 1  3E0             Rx   d 8 B0 F3 21 30 48 2B 72 6C
   1.580653 1  400             Rx   d 8 51 82 FF FE A3 67 A3 BD
   0.648415 1  4CC             Rx   d 8 53 4B 40 4D B2 ED 8C 0E
   3.944898 1  500             Rx   d 8 98 2E 28 1B 3C 59 C1 62
   1.971359 1  600             Rx   d 8 0B 47 95 84 E5 BC F6 06
   0.798175 1  100             Rx   d 8 84 F8 99 56 3D 2D FA 7C
   1.596249 1  1FF             Rx   d 8 57 94 AC 3D EE 6A 22 8F
   1.203220 1  200             Rx   d 8 C9 0E 7E 06 98 FB 37 AB
   3.046924 1  2AB             Rx   d 8 E1 4B 18 1D D2 3A 2E 2A
   0.400074 1  300             Rx   d 8 A5 C7 9D 5F 3E FF 0E 56
   7.997184 1  3E0             Rx   d 8 27 BD 4E BE 63 19 8F 01
   1.600643 1  400             Rx   d 8 DA 65 A5 71 40 EF D3 3A
   0.649884 1  4CC             Rx   d 8 06 E3 F6 F0 F1 F4 85 56
   3.996368 1  500             Rx   d 8 B1 D6 F4 43 7E 7E AB 04
   1.996993 1  600             Rx   d 8 53 DD DE DF 5B D6 03 6A
   0.808143 1  100             Rx   d 8 64 74 8A 98 FF 5F 48 43
   1.616927 1  1FF             Rx   d 8 4B ED B5 A6 21 CF 39 4B
   1.218653 1  200             Rx   d 8 77 95 BE A9 9D D0 E7 E4
   3.050601 1  2AB             Rx   d 8 11 35 E9 50 A0 64 32 31
   0.404937 1  300             Rx   d 8 98 A8 BB 0C 71 6D 51 10
   8.096383 1  3E0             Rx   d 8 06 E7 CE FA AD F8 71 B8
   1.620246 1  400             Rx   d 8 09 5A 16 1C CB F9 33 A6
   0.651161 1  4CC             Rx   d 8 DC C7 71 BD 08 6E DF 38
   4.047322 1  500             Rx   d 8 FB 6A 60 76 81 13 42 D3
   2.021968 1  600             Rx   d 8 6A F8 75 6C 93 68 9D 60
   0.817795 1  100             Rx   d 8 74 41 23 DC CC AE 98 2E
   1.636779 1  1FF             Rx   d 8 C8 1B 44 7E 0C F9 82 92
   1.233939 1  200             Rx   d 8 7C 1A E0 A2 9C B6 98 DE
   3.053760 1  2AB             Rx   d 8 C7 9B 5B CD A4 64 A9 EA
   0.409801 1  300             Rx   d 8 85 D6 4D 88 61 ED 28 0A
   8.194298 1  3E0             Rx   d 8 60 A4 24 E9 6F 02 BC F2
   1.639551 1  400             Rx   d 8 6C 8F 1D FA 45 37 B8 1F
   0.652900 1  4CC             Rx   d 8 14 9B BB E5 9C 2A EF 43
   4.097889 1  500             Rx   d 8 A9 DD F6 19 00 71 F5 94
   2.047196 1  600             Rx   d 8 B7 9E A5 69 6A D9 7B 32
   0.827549 1  100             Rx   d 8 41 F0 90 3A 88 5F 06 17
   1.656563 1  1FF             Rx   d 8 F6 F3 2F 09 E1 A6 97 FC
   1.248818 1  200             Rx   d 8 01 04 B1 F1 E7 90 B2 99
   3.056469 1  2AB             Rx   d 8 8F 38 D9 62 48 CF FB 18
   0.414810 1  300             Rx   d 8 2C 24 0D 49 3E DB 9C 10
   8.296793 1  3E0             Rx   d 8 2B 19 72 29 94 3E 60 1F
   1.659133 1  400             Rx   d 8 A1 C1 F9 DA 62 32 5B 94
   0.656072 1  4CC             Rx   d 8 5A 18 93 CC C8 19 93 14
   4.147793 1  500             Rx   d 8 82 74 86 19 87 DE FF 4F
   2.072236 1  600             Rx   d 8 10 E4 33 3A 6D 6F 23 95
   0.837238 1  100             Rx   d 8 00 08 E9 23 53 17 D5 31
   1.677253 1  1FF             Rx   d 8 35 B4 FA 1B 92 72 D8 89
   1.263751 1  200             Rx   d 8 F7 B4 BD 38 96 DD D1 B7
   3.057675 1  2AB             Rx   d 8 8B 1D E7 0B BA 73 18 EB
   0.419655 1  300             Rx   d 8 64 73 C9 62 CF 4F 76 B1
   8.397846 1  3E0             Rx   d 8 13 42 49 A3 43 47 AC 7A
   1.679217 1  400             Rx   d 8 F8 B0 F0 3C C6 C9 11 7D
   0.657888 1  4CC             Rx   d 8 F4 40 3A 58 32 BE 98 1D
   4.198430 1  500             Rx   d 8 B2 C7 9B FA 1A FA B1 8E
   2.097378 1  600             Rx   d 8 18 B6 0C 5E 36 BB FA 61
   0.846992 1  100             Rx   d 8 FA 83 F1 94 53 E1 3B 91
   1.697532 1  1FF             Rx   d 8 CF 14 C6 6F EC F4 B0 EB
   1.278300 1  200             Rx   d 8 35 7B 1D 36 05 25 2A E9
   3.059145 1  2AB             Rx   d 8 1E 8A 2A 29 C9 38 C6 4D
   0.424750 1  300             Rx   d 8 DF C3 F1 36 62 67 78 D8
   8.494410 1  3E0             Rx   d 8 13 C7 59 F0 F2 AC A8 DE
   1.698577 1  400             Rx   d 8 9A D9 6A 34 99 20 39 6B
   0.659572 1  4CC             Rx   d 8 6A DF BF B6 9F 36 43 0F
   4.249477 1  500             Rx   d 8 FA C1 E6 C5 D1 B0 5C 97
   2.121891 1  600             Rx   d 8 07 53 47 A9 E1 F6 45 01
   0.856747 1  100             Rx   d 8 CF 0E 53 5C 3C F8 95 69
   1.716844 1  1FF             Rx   d 8 92 DA E1 2B 0C 51 6C C4
   1.293415 1  200             Rx   d 8 02 69 81 67 54 51 D2 CF
   3.062301 1  2AB             Rx   d 8 EC 27 3E 4B 2E E5 2E C9
   0.429803 1  300             Rx   d 8 4F C4 94 73 C9 1B DB 74
   8.591104 1  3E0             Rx   d 8 98 D5 F5 4F AE 6D 36 D8
   1.718009 1  400             Rx   d 8 3A 1A 91 20 9C DA 02 CA
   0.661504 1  4CC             Rx   d 8 07 38 14 8E 8B B8 27 2F
   4.299606 1  500             Rx   d 8 00 76 37 97 E6 7A B9 55
   2.146771 1  600             Rx   d 8 73 F5 97 F0 14 F6 12 24
   0.866900 1  100             Rx   d 8 74 13 BC C6 A5 EC D0 0E
   1.737211 1  1FF             Rx   d 8 F7 F1 C1 D6 D7 38 B5 12
   1.308759 1  200             Rx   d 8 5E 15 F6 B6 7C 59 92 D3
   3.066241 1  2AB             Rx   d 8 8A BB 33 7E 57 1F F3 F5
   0.434904 1  300             Rx   d 8 44 8C DB 57 CA 49 3C 42
   8.692512 1  3E0             Rx   d 8 3F 2D 7D EC 34 C5 FC B7
   1.737953 1  400             Rx   d 8 07 C8 91 1C D9 C9 78 4E
   0.663586 1  4CC             Rx   d 8 CE 68 C3 81 66 74 7A AF
   4.348080 1  500             Rx   d 8 42 CE A0 E2 C3 FF B7 96
   2.172606 1  600             Rx   d 8 CC 8B 01 91 8E B6 4B 5B
   0.877117 1  100             Rx   d 8 B5 25 C0 DB 2C 37 2E CE
   1.757374 1  1FF             Rx   d 8 48 75 F0 54 3B 6E 30 B2
   1.324218 1  200             Rx   d 8 C5 C1 ED 71 D6 96 6E AE
   3.070152 1  2AB             Rx   d 8 EE A7 A0 A3 9C 35 BC 11
   0.439987 1  300             Rx   d 8 07 82 FC D9 BE 16 61 B0
   8.790932 1  3E0             Rx   d 8 56 CB 44 D5 9B E9 EA 05
   1.758001 1  400             Rx   d 8 82 32 76 A5 3A 44 CE B3
   0.665671 1  4CC             Rx   d 8 10 28 E4 81 DC 75 80 2F
   4.397359 1  500             Rx   d 8 17 E6 88 B2 41 7A 99 68
   2.198136 1  600             Rx   d 8 04 F2 9B 1E 1A 75 9C 5D
   0.887412 1  100             Rx   d 8 75 45 8C D5 6D E2 E4 80
   1.776760 1  1FF             Rx   d 8 2E AA 80 B0 9F 74 36 F7
   1.339613 1  200             Rx   d 8 0A 8B 57 7D 3E 89 65 75
   3.074165 1  2AB             Rx   d 8 9D 5F 29 CF BC E7 53 72
   0.444878 1  300             Rx   d 8 02 01 5A 5E EA 64 C0 1C
   8.888602 1  3E0             Rx   d 8 03 9A 43 84 9D BC 9B BE
   1.778538 1  400             Rx   d 8 2E 53 24 14 07 2E 13 FB
   0.667889 1  4CC             Rx   d 8 E6 CD 4E F7 DD AB 1D D6
   4.449000 1  500             Rx   d 8 A7 B9 ED 5B 42 54 E3 C4
   2.222458 1  600             Rx   d 8 9F 10 92 16 FE 6E FA 88
   0.897706 1  100             Rx   d 8 DE 1E E6 16 EF 74 71 31
   1.796401 1  1FF             Rx   d 8 92 71 4E AD E5 06 E0 41
   1.354409 1  200             Rx   d 8 89 20 FF 71 17 9E 2A 36
   3.076187 1  2AB             Rx   d 8 85 E9 9B 28 87 AE 30 34
   0.450034 1  300             Rx   d 8 0E 2B 24 82 64 3A 3C 2F
   8.990348 1  3E0             Rx   d 8 08 94 81 4D D6 11 6B 69
   1.798064 1  400             Rx   d 8 F7 31 C2 75 4E 0E FB C0
   0.670629 1  4CC             Rx   d 8 F4 FC 61 C3 05 69 BD AE
   4.498314 1  500             Rx   d 8 89 18 DA AE D2 0F F7 A1
   2.248185 1  600             Rx   d 8 9B 30 B2 76 94 76 5C B4
   0.907498 1  100             Rx   d 8 BF 5C FA AE 9D 91 88 52
   1.815923 1  1FF             Rx   d 8 7B E6 EF 4E 82 96 8C 7B
   1.369127 1  200             Rx   d 8 02 BA B9 82 42 3F 64 97
   3.078651 1  2AB             Rx   d 8 B0 11 A1 F9 06 58 0D 54
   0.454935 1  300             Rx   d 8 67 EB 5D 9A D5 7F F4 38
   9.087096 1  3E0             Rx   d 8 1A C9 79 64 37 65 F0 43
   1.817944 1  400             Rx   d 8 B6 7E 39 FE B7 06 8C 33
   0.673347 1  4CC             Rx   d 8 C2 10 5F 64 38 C3 F2 12
   4.549092 1  500             Rx   d 8 32 5F 6B 6A 71 3F C9 50
   2.272856 1  600             Rx   d 8 25 B2 7D D8 4A 82 6D 4B
   0.917178 1  100             Rx   d 8 6A F7 DC BB 50 0A B1 9F
   1.835748 1  1FF             Rx   d 8 F0 88 DC 32 13 EB 83 46
   1.384323 1  200             Rx   d 8 BA 16 AE D4 4E A9 C0 F1
   3.082634 1  2AB             Rx   d 8 DB 9F 9D BB FD DB 48 EF
   0.460107 1  300             Rx   d 8 73 72 94 9D 01 EF B1 71
   9.190303 1  3E0             Rx   d 8 35 E2 72 EF 42 63 07 33
   1.838030 1  400             Rx   d 8 41 9C 68 DC FF F1 75 F1
   0.677348 1  4CC             Rx   d 8 4D BC 45 7C 03 6E F4 45
   4.598425 1  500             Rx   d 8 C0 58 C1 D2 0C A1 D0 42
   2.297733 1  600             Rx   d 8 4F 4C AE 72 DD BB 94 FE
   0.927186 1  100             Rx   d 8 F9 DC 02 0E 48 49 82 31
   1.856259 1  1FF             Rx   d 8 4E D9 AD 4E 60 82 DF 1E
   1.399323 1  200             Rx   d 8 95 26 2D CC 0E BC 61 22
   3.084063 1  2AB             Rx   d 8 19 FA FC 4A FA AD DF D0
   0.465181 1  300             Rx   d 8 5C 34 51 B9 06 56 09 F5
   9.288776 1  3E0             Rx   d 8 FD 7B C3 4B C3 CB B8 A6
   1.857941 1  400             Rx   d 8 82 9C 3E 56 22 F4 56 A0
   0.680743 1  4CC             Rx   d 8 E0 0F 7A 51 12 E1 67 54
   4.648019 1  500             Rx   d 8 96 9F 44 0D 20 7B 15 B2
   2.321958 1  600             Rx   d 8 14 F3 EE F6 59 24 4C 63
   0.937433 1  100             Rx   d 8 B8 5D C3 71 E0 A9 08 F2
   1.876459 1  1FF             Rx   d 8 49 FA 5D EA 3A D5 AD 3B
   1.414155 1  200             Rx   d 8 D5 B3 05 EA 9B 57 33 BD
   3.086276 1  2AB             Rx   d 8 55 6E 67 53 30 C3 E1 59
   0.470212 1  300             Rx   d 8 62 DE A6 70 9E EC 91 C6
   9.390997 1  3E0             Rx   d 8 72 B6 C8 AB 40 B9 D2 7C
   1.878625 1  400             Rx   d 8 01 E1 02 28 4A F6 A8 32
   0.684815 1  4CC             Rx   d 8 B4 4F 62 E3 3B 14 30 58
   4.699431 1  500             Rx   d 8 E8 A1 50 7B BD D0 E1 E5
   2.347426 1  600             Rx   d 8 54 6B A4 CA 0D 19 B4 AF
   0.947377 1  100             Rx   d 8 04 67 B0 49 F9 5F B0 BF
   1.896020 1  1FF             Rx   d 8 C6 C6 D6 13 59 C1 4E 5D
   1.428871 1  200             Rx   d 8 76 C4 BD 5F 74 64 B9 13
   3.089689 1  2AB             Rx   d 8 5A CE 84 A1 BD B6 FF 92
   0.475062 1  300             Rx   d 8 41 65 CD 43 E3 91 16 2E
   9.489631 1  3E0             Rx   d 8 09 14 73 71 8F 71 9A 89
   1.898269 1  400             Rx   d 8 51 4B F3 25 AF E2 F7 A4
   0.688453 1  4CC             Rx   d 8 CF F2 B0 1F 1A 63 50 F6
   4.751130 1  500             Rx   d 8 6C 3E F6 62 68 2A 0C E6
   2.372975 1  600             Rx   d 8 B5 7B 84 A1 E0 FB 42 7A
   0.957203 1  100             Rx   d 8 80 09 C4 05 8D 3D 9C 4A
   1.915834 1  1FF             Rx   d 8 CB 22 56 0A 93 CF 46 E6
   1.443950 1  200             Rx   d 8 57 61 5D 4B 5F 79 8F FE
   3.092803 1  2AB             Rx   d 8 D0 D9 CC C6 04 B7 B9 78
   0.479897 1  300             Rx   d 8 A5 B2 8F 53 CC EB 68 01
   9.586872 1  3E0             Rx   d 8 A7 CF 41 B6 6E 23 6B 13
   1.918138 1  400             Rx   d 8 DE 35 2D F5 99 EA 7D AB
   0.692054 1  4CC             Rx   d 8 AA 96 E3 6C 50 83 61 D8
   4.800488 1  500             Rx   d 8 06 64 D8 14 BD D5 9F F6
   2.397999 1  600             Rx   d 8 DE 54 FF 4E B2 47 DC 8E
   0.967395 1  100             Rx   d 8 79 DC A1 E1 41 6E 3C E6
   1.935157 1  1FF             Rx   d 8 92 A8 CB 2F 36 A2 41 39
   1.458490 1  200             Rx   d 8 B5 B4 F1 39 62 92 5D EA
   3.095586 1  2AB             Rx   d 8 07 68 A6 F9 D1 9A F2 3A
   0.484833 1  300             Rx   d 8 6C 85 E9 81 BA 19 17 25
   9.685893 1  3E0             Rx   d 8 8E 88 F5 23 0E 41 D6 7E
   1.938336 1  400             Rx   d 8 C0 85 65 2B 0A 77 2A BE
   0.693453 1  4CC             Rx   d 8 97 C1 5C 54 29 85 79 04
   4.852205 1  500             Rx   d 8 B7 1C ED 7B EE B6 7C 32
   2.422538 1  600             Rx   d 8 F3 3F B0 AB 4D 5F 34 58
   0.977624 1  100             Rx   d 8 D8 48 15 D5 5A 46 DF AD
   1.954575 1  1FF             Rx   d 8 9B 76 A0 AF 0E 05 72 C2
   1.473400 1  200             Rx   d 8 13 C4 E9 B6 A5 40 FF E7
   3.099124 1  2AB             Rx   d 8 B3 B3 80 5F 1A D1 2D 46
   0.489705 1  300             Rx   d 8 B7 64 1F B2 82 93 D7 E8
   9.786004 1  3E0             Rx   d 8 1F B8 EA E0 AF 0E 3C 68
   1.958204 1  400             Rx   d 8 C9 87 43 8B B1 28 E6 4D
   0.695107 1  4CC             Rx   d 8 DE F1 7D 69 BA 7E A2 E0
   4.901627 1  500             Rx   d 8 5A 83 EB C5 B7 6C 65 7E
   2.446687 1  600             Rx   d 8 02 91 93 87 55 3F 1C FB
   0.987280 1  100             Rx   d 8 86 D2 01 FA C4 A2 54 B7
   1.974343 1  1FF             Rx   d 8 06 71 3F DC 21 C6 A2 C6
   1.488384 1  200             Rx   d 8 66 FE F6 2B BD 2B EB 24
   3.103141 1  2AB             Rx   d 8 5C C4 65 9C 64 7D A1 52
   0.494784 1  300             Rx   d 8 B5 7C 8F 43 BA C4 BE 83
   9.882853 1  3E0             Rx   d 8 71 1C FD 66 59 BD 44 CD
   1.977609 1  400             Rx   d 8 15 51 D4 58 6C C9 69 DB
   0.697509 1  4CC             Rx   d 8 B9 EF 39 AC AB DA DE 20
   4.952477 1  500             Rx   d 8 29 78 F7 51 BC 68 12 20
   2.471771 1  600             Rx   d 8 EB AB 8A FA 4F 1F 75 1C
   0.997101 1  100             Rx   d 8 65 D1 11 C7 E4 A8 77 6B
   1.994914 1  1FF             Rx   d 8 41 F9 04 5E 60 37 0F D1
   1.502999 1  200             Rx   d 8 D0 BB B6 60 D6 28 6B 96
   3.104427 1  2AB             Rx   d 8 76 2F 76 18 35 33 98 66
   0.499859 1  300             Rx   d 8 90 66 2A 5A 7D 47 D4 94
   9.985654 1  3E0             Rx   d 8 FC EE 8F 22 49 72 1D 33
   1.997984 1  400             Rx   d 8 C8 A5 9C D0 0A 91 D9 13
   0.700971 1  4CC             Rx   d 8 F5 65 84 F6 76 80 BE 09
   5.001468 1  500             Rx   d 8 22 63 86 29 54 AE 26 2A
   2.496092 1  600             Rx   d 8 DF 48 8F 92 DE 24 D0 BB
   1.007362 1  100             Rx   d 8 12 7F D7 94 D0 A1 59 9D
   2.014663 1  1FF             Rx   d 8 0C B8 E3 15 BF 6F A9 CB
   1.517891 1  200             Rx   d 8 62 CE F7 FC 92 42 A3 63
   3.105797 1  2AB             Rx   d 8 F5 D3 26 C8 F9 C9 61 13
   0.504728 1  300             Rx   d 8 C1 3A 2F 15 D6 7F C7 2C
   10.088515 1  3E0             Rx   d 8 DF 0C 80 69 6A A9 37 70
   2.018072 1  400             Rx   d 8 DD 56 26 3A 2F 05 D1 5F
   0.703165 1  4CC             Rx   d 8 2F F7 CA 04 B5 0C A9 99
   5.050956 1  500             Rx   d 8 43 26 D8 55 45 32 89 4D
   2.521590 1  600             Rx   d 8 5F 45 9D 28 A3 56 88 85
   1.017413 1  100             Rx   d 8 CA 28 B0 2F 18 E4 04 1A
   2.034987 1  1FF             Rx   d 8 21 B4 BF 60 D6 D5 65 D1
   1.533305 1  200             Rx   d 8 18 F7 EC F5 EC A3 8C 05
   3.106867 1  2AB             Rx   d 8 1C 3D 9F 5D 6C 10 73 13
   0.509812 1  300             Rx   d 8 FE A4 2E 73 D6 C7 67 4D
   10.191001 1  3E0             Rx   d 8 92 DF FD 50 7D 09 5A E4
   2.037838 1  400             Rx   d 8 21 68 3D BA A5 AB F6 99
   0.704714 1  4CC             Rx   d 8 53 1A 7C 8C A4 EC 7D 1C
   5.101615 1  500             Rx   d 8 D2 B5 63 86 06 B0 EE C4
   2.546482 1  600             Rx   d 8 2B 26 67 D8 4A 22 9E 1F
   1.027194 1  100             Rx   d 8 50 9A 17 42 A2 04 E9 3A
   2.054482 1  1FF             Rx   d 8 CC 47 73 3A 07 84 8F D8
   1.548078 1  200             Rx   d 8 12 1B D4 04 C5 D8 21 ED
   3.110570 1  2AB             Rx   d 8 1C 94 FD E6 09 67 40 36
   0.514653 1  300             Rx   d 8 13 20 6F 4E 74 74 7D FD
   10.289128 1  3E0             Rx   d 8 A2 AC D6 73 68 0F A6 38
   2.057547 1  400             Rx   d 8 EF 90 B3 72 7D 25 D1 E4
   0.707618 1  4CC             Rx   d 8 5C 66 02 77 D0 AA 6C 6F
   5.152421 1  500             Rx   d 8 F6 8C 76 D2 86 3A 3C 45
   2.571467 1  600             Rx   d 8 6A F2 28 2E 9E DB 92 DE
   1.036900 1  100             Rx   d 8 D1 88 FC 40 3C C7 0B 65
   2.074960 1  1FF             Rx   d 8 70 C2 3E 35 8D E7 00 E9
   1.562633 1  200             Rx   d 8 30 A4 63 4A BE BD B3 B7
   3.112189 1  2AB             Rx   d 8 66 C2 3B CA 6D 1E 5D 47
   0.519540 1  300             Rx   d 8 B0 DF 56 25 1E 7D 51 41
   10.391603 1  3E0             Rx   d 8 9F F6 22 E2 EB 4F A9 E7
   2.077834 1  400             Rx   d 8 D4 7E BA 61 D6 FD 61 FD
   0.711124 1  4CC             Rx   d 8 14 60 29 01 76 EF 57 02
   5.202383 1  500             Rx   d 8 06 38 61 5F 83 75 7C F7
   2.596237 1  600             Rx   d 8 E3 05 1C EC A1 8D C0 B7
   1.046815 1  100             Rx   d 8 AC 61 07 FC 47 E2 32 99
   2.094979 1  1FF             Rx   d 8 DF 22 8C A2 39 EB D8 C9
   1.577668 1  200             Rx   d 8 2C 46 31 F5 28 60 89 BE
   3.113925 1  2AB             Rx   d 8 AF BA 05 E3 65 FE 9B 1A
   0.524628 1  300             Rx   d 8 01 B0 C6 06 39 B1 F1 96
   10.488419 1  3E0             Rx   d 8 12 C0 53 44 4A D2 49 AB
   2.098317 1  400             Rx   d 8 5F FF 0A E8 D5 C6 7F 52
   0.713306 1  4CC             Rx   d 8 C8 D7 8C AA 40 D5 C5 8F
   5.252875 1  500             Rx   d 8 7F 7B D0 D6 62 7C 6F 63
   2.620764 1  600             Rx   d 8 DE 06 71 91 58 21 86 80
   1.056857 1  100             Rx   d 8 CE D3 78 5D 99 BA 62 0F
   2.114527 1  1FF             Rx   d 8 67 D1 F3 6E 3F D2 36 EF
   1.592149 1  200             Rx   d 8 60 F9 8F 89 CD F0 E5 1D
   3.115996 1  2AB             Rx   d 8 05 5F B1 33 59 32 C2 B6
   0.529620 1  300             Rx   d 8 28 2E 8D 35 73 E7 82 E3
   10.591798 1  3E0             Rx   d 8 21 70 72 65 9D 88 89 FC
   2.118406 1  400             Rx   d 8 71 1A 7F F7 1E 0B 88 F2
   0.714460 1  4CC             Rx   d 8 96 ED C6 0F 6D 16 80 9B
   5.303731 1  500             Rx   d 8 6F 8B 5D 34 95 51 50 43
   2.645841 1  600             Rx   d 8 AC 62 C8 14 01 36 05 F8
   1.067070 1  100             Rx   d 8 CA 6C EF 2B 4C 22 CE 23
   2.134092 1  1FF             Rx   d 8 B1 0D 68 99 AB BB 2C F0
   1.606722 1  200             Rx   d 8 54 B0 23 BD 2A 6F E4 DF
   3.117771 1  2AB             Rx   d 8 1F 96 77 25 45 1B 40 FC
   0.534676 1  300             Rx   d 8 8B E9 92 DD C6 9E D5 BF
   10.694419 1  3E0             Rx   d 8 61 B4 0E E1 04 8E 1A E2
   2.138282 1  400             Rx   d 8 0F B3 F5 D2 46 16 7C 28
   0.716766 1  4CC             Rx   d 8 AD 09 D7 3F 58 F0 1F C2
   5.355475 1  500             Rx   d 8 F2 42 EB AA 47 5F 96 52
   2.671265 1  600             Rx   d 8 54 75 B1 8F B4 58 2C 6C
   1.076763 1  100             Rx   d 8 08 50 24 00 DD 15 A0 46
   2.154066 1  1FF             Rx   d 8 19 F8 5E 68 E6 A6 5B 9B
   1.622046 1  200             Rx   d 8 FD 30 95 D6 60 2B 69 69
   3.119113 1  2AB             Rx   d 8 70 C0 5F E6 B7 48 D2 AB
   0.539652 1  300             Rx   d 8 4C 34 01 51 5F EB 12 03
   10.792100 1  3E0             Rx   d 8 29 D0 80 8A AF E1 69 DE
   2.157856 1  400             Rx   d 8 41 7E 0E 4C 51 CD 76 93
   0.718882 1  4CC             Rx   d 8 7F A1 16 38 BB FF 25 58
   5.404744 1  500             Rx   d 8 06 D0 1E 3F EE 70 97 57
   2.696053 1  600             Rx   d 8 06 11 A5 1A F1 8C A0 04
   1.086735 1  100             Rx   d 8 9E FD 48 FF BB 79 1A 20
   2.174004 1  1FF             Rx   d 8 0A 98 4E 1A F2 6F EA EA
   1.636721 1  200             Rx   d 8 DF 80 2B 1C D1 66 47 65
   3.120227 1  2AB             Rx   d 8 30 A9 62 F8 2E 88 6D 93
   0.544552 1  300             Rx   d 8 48 B5 F8 F4 AE 9D 35 74
   10.894770 1  3E0             Rx   d 8 7F 97 A1 A5 D4 67 2C D7
   2.177793 1  400             Rx   d 8 B2 0F 30 78 C3 EC EC 40
   0.722101 1  4CC             Rx   d 8 7F 2E F8 46 87 5A AF F5
   5.455150 1  500             Rx   d 8 08 B2 43 AD 35 FB 1B 36
   2.720835 1  600             Rx   d 8 00 99 BC B6 F0 5E B4 57
   1.097040 1  100             Rx   d 8 B5 C7 09 24 1E DF AA F4
   2.193363 1  1FF             Rx   d 8 9B C8 0C EA 7C 6A EE 9A
   1.651541 1  200             Rx   d 8 63 91 C8 F6 52 10 C8 6F
   3.124228 1  2AB             Rx   d 8 94 29 71 80 D4 97 5D 6B
   0.549590 1  300             Rx   d 8 69 C0 9A BC 2D E9 95 F0
   10.997655 1  3E0             Rx   d 8 21 53 A1 2C BE A9 AC AC
   2.197614 1  400             Rx   d 8 72 CA D6 FB 04 6B 63 8F
   0.723370 1  4CC             Rx   d 8 D8 C9 38 4E 90 01 C3 46
   5.506742 1  500             Rx   d 8 B5 21 73 69 76 DC C4 21
   2.745615 1  600             Rx   d 8 BB 21 0F 87 B5 30 0D 34
   1.107036 1  100             Rx   d 8 17 93 10 E0 63 83 8B D8
   2.213161 1  1FF             Rx   d 8 43 58 49 99 EF 3B 06 83
   1.667018 1  200             Rx   d 8 9C 82 9D 7A DA 93 37 FB
   3.173012 1  2AB             Rx   d 8 C7 71 02 C2 A5 D3 5C C1
   0.554541 1  300             Rx   d 8 93 80 5B 98 A9 73 39 4A
   11.101150 1  3E0             Rx   d 8 BA E2 F5 4D AD CF F5 02
   2.217184 1  400             Rx   d 8 4F B1 90 A0 35 6E 54 39
   0.733580 1  4CC             Rx   d 8 A0 3F C9 B2 CD 69 3B F2
   5.557648 1  500             Rx   d 8 56 5A 4A 84 9E 15 BF 43
   2.770068 1  600             Rx   d 8 C0 B8 9F AD 30 55 3A 44
   1.117259 1  100             Rx   d 8 34 7B 23 FA 8E 5D 0F 40
   2.233027 1  1FF             Rx   d 8 B1 B0 2D 41 F4 F7 7E B4
   1.682160 1  200             Rx   d 8 D1 3A F2 08 ED 5C 48 3B
   3.223266 1  2AB             Rx   d 8 6F F2 9F AC C2 61 59 B8
   0.559477 1  300             Rx   d 8 71 DA B6 74 F2 AD E4 93
   11.202978 1  3E0             Rx   d 8 04 06 47 57 4F E1 2F 65
   2.236784 1  400             Rx   d 8 12 55 A7 E0 24 40 07 A7
   0.743769 1  4CC             Rx   d 8 11 46 D6 E9 97 47 22 C3
   5.606353 1  500             Rx   d 8 B3 C9 75 4B 6E 5B 5A 9C
   2.795315 1  600             Rx   d 8 7F A4 F4 9A 23 B4 79 35
   1.127600 1  100             Rx   d 8 83 26 78 52 84 22 77 C0
   2.253612 1  1FF             Rx   d 8 E8 3D A6 C7 D6 28 03 A9
   1.696855 1  200             Rx   d 8 A2 EC F4 7D DB 5D 43 7D
   3.272458 1  2AB             Rx   d 8 69 B1 C1 E5 A3 71 83 13
   0.564595 1  300             Rx   d 8 DF 67 75 FA F0 7B B3 23
   11.306338 1  3E0             Rx   d 8 7D EF 93 AE B2 13 00 2B
   2.257173 1  400             Rx   d 8 FF FF 45 F0 30 E3 4F CB
   0.753625 1  4CC             Rx   d 8 3C 71 B7 45 58 49 8C D1
   5.655949 1  500             Rx   d 8 96 6C DD 00 B5 A1 A9 14
   2.821174 1  600             Rx   d 8 21 AE B4 62 F5 EF 2A 18
   1.137934 1  100             Rx   d 8 A6 05 2C E4 BF C2 B4 9F
   2.272920 1  1FF             Rx   d 8 16 3F 35 5E 46 E6 69 6D
   1.711382 1  200             Rx   d 8 D8 FC 1E 6C 3A 82 F6 43
   3.324025 1  2AB             Rx   d 8 A6 D4 6D FE 3A 6E 90 29
   0.569429 1  300             Rx   d 8 43 8C 64 2D 1D 73 20 A8
   11.406294 1  3E0             Rx   d 8 51 10 35 18 24 E7 34 C5
   2.276838 1  400             Rx   d 8 54 CA 82 15 C0 5F 39 B4
   0.763313 1  4CC             Rx   d 8 DB 7A C6 98 FA 10 4E 58
   5.706153 1  500             Rx   d 8 CF 05 C2 62 85 F4 79 7F
   2.846900 1  600             Rx   d 8 22 E8 11 E7 74 13 13 DA
   1.148217 1  100             Rx   d 8 D2 E0 8E 38 B0 F9 2C 41
   2.293597 1  1FF             Rx   d 8 AE 4C 17 E3 69 D1 7A 50
   1.726718 1  200             Rx   d 8 74 70 22 59 8E 20 37 90
   3.374566 1  2AB             Rx   d 8 A3 44 22 FF 03 BD EB 7A
   0.574584 1  300             Rx   d 8 8C 9F 56 B0 59 BF C1 3E
   11.508002 1  3E0             Rx   d 8 F2 F9 E0 77 6D 8A D8 15
   2.297469 1  400             Rx   d 8 3D BE 19 BC CB 44 69 0E
   0.773568 1  4CC             Rx   d 8 36 D3 E1 2C FC 86 B5 A2
   5.755185 1  500             Rx   d 8 E0 F5 A1 84 E9 F8 49 84
   2.871869 1  600             Rx   d 8 7B 76 F2 51 9E D2 68 6D
   1.157928 1  100             Rx   d 8 33 60 A3 27 1F 5A 94 C2
   2.313049 1  1FF             Rx   d 8 26 5E C2 BC B5 A3 E3 3C
   1.741674 1  200             Rx   d 8 08 72 83 F7 A8 E0 02 B1
   3.423027 1  2AB             Rx   d 8 8F 65 3F CA 58 EF 3C 55
   0.579707 1  300             Rx   d 8 70 57 4B 40 FB 0F 92 F4
   11.607971 1  3E0             Rx   d 8 AE 99 85 AA FC 28 7F 00
   2.317099 1  400             Rx   d 8 FF 1D 77 91 7A E5 A8 98
   0.783612 1  4CC             Rx   d 8 FA 7A 41 81 1D 33 00 F0
   5.805424 1  500             Rx   d 8 7C F7 0A 1F 79 96 DF 37
   2.896049 1  600             Rx   d 8 E2 E5 26 C2 D9 69 78 C2
   1.167801 1  100             Rx   d 8 89 A2 40 30 7F 7B A6 A7
   2.332361 1  1FF             Rx   d 8 4F 3F 04 4A 7E 09 4B AD
   1.756597 1  200             Rx   d 8 A7 EB F6 0D 4D 71 9B 6B
   3.472701 1  2AB             Rx   d 8 B5 95 36 D6 32 00 E3 0A
   0.584628 1  300             Rx   d 8 EE C6 CF FE 37 A5 52 C3
   11.710651 1  3E0             Rx   d 8 D7 0C 07 5B A8 6C 40 9A
   2.337032 1  400             Rx   d 8 68 7D 91 18 70 8A A1 22
   0.793672 1  4CC             Rx   d 8 B2 70 BB F5 D6 8A CA 86
   5.854458 1  500             Rx   d 8 76 B7 B5 72 D6 86 2B E9
   2.920313 1  600             Rx   d 8 8C E5 BB 20 12 4A 63 3A
   1.177648 1  100             Rx   d 8 30 FC E0 F0 55 71 7D 93
   2.351815 1  1FF             Rx   d 8 0B BE 8D 69 70 0B F5 02
   1.771514 1  200             Rx   d 8 7E 13 06 6A B5 68 FA 9D
   3.523874 1  2AB             Rx   d 8 83 75 26 48 FE EB 79 C2
   0.589782 1  300             Rx   d 8 0F A7 39 4A 07 F0 EB CE
   11.807483 1  3E0             Rx   d 8 C4 73 D3 C3 F2 72 22 7E
   2.357010 1  400             Rx   d 8 C9 8B 34 AE 4F B1 9B 41
   0.803342 1  4CC             Rx   d 8 E0 77 32 38 DB F3 BD 6C
   5.904435 1  500             Rx   d 8 14 E0 8F E7 1D 50 B3 B3
   2.944947 1  600             Rx   d 8 1C A1 DF 0E C7 92 9E F3
   1.187399 1  100             Rx   d 8 C3 AF 77 0E 63 51 EF 09
   2.371795 1  1FF             Rx   d 8 DF 2D 37 8F FE E7 55 26
   1.786379 1  200             Rx   d 8 42 44 41 AF 0F BA 94 B4
   3.572461 1  2AB             Rx   d 8 F6 83 C0 0A 30 80 00 AE
   0.594834 1  300             Rx   d 8 B0 1C 16 4B AC A7 9C 7F
   11.910837 1  3E0             Rx   d 8 AD DA C4 A4 11 EE 27 E7
   2.377421 1  400             Rx   d 8 CD 27 FA D2 F8 00 49 45
   0.813136 1  4CC             Rx   d 8 88 5F CE 1B CB C9 CE CD
   5.955933 1  500             Rx   d 8 4D 9F 9F 92 9B 9B DE 9F
   2.969663 1  600             Rx   d 8 3D 29 B7 52 47 B6 40 F2
   1.197564 1  100             Rx   d 8 89 C4 30 82 65 A2 72 10
   2.391975 1  1FF             Rx   d 8 86 0C 62 20 41 05 3B 99
   1.801691 1  200             Rx   d 8 5D 5D DE 60 C9 DF 8F 9F
   3.620998 1  2AB             Rx   d 8 4F B8 D8 E2 35 C5 28 F2
   0.599926 1  300             Rx   d 8 57 9C 96 D8 44 50 41 CF
   12.013260 1  3E0             Rx   d 8 3C 80 78 F6 E7 D4 31 12
   2.397541 1  400             Rx   d 8 0D CD CE 43 E9 98 54 0B
   0.823093 1  4CC             Rx   d 8 0A 15 43 06 1E F9 53 E2
   6.004691 1  500             Rx   d 8 01 62 0B 68 70 61 F2 B6
   2.995036 1  600             Rx   d 8 71 3D 77 25 00 B0 9F F6
   1.207262 1  100             Rx   d 8 E8 E8 02 7C EB 30 75 24
   2.411397 1  1FF             Rx   d 8 FE B6 6B F1 23 4D CC 34
   1.816459 1  200             Rx   d 8 59 D3 54 26 9F B5 46 E7
   3.671437 1  2AB             Rx   d 8 0A 2E 2F DB 5E E6 11 FC
   0.605004 1  300             Rx   d 8 21 C5 9F 8B EB 7F 8D AD
   12.115835 1  3E0             Rx   d 8 BD AE 85 45 7E 25 12 D1
   2.417619 1  400             Rx   d 8 DC 7D 57 AB 17 A5 F0 66
   0.833359 1  4CC             Rx   d 8 80 C7 11 8B 60 B5 0C 87
   6.055691 1  500             Rx   d 8 E6 29 DF 6D 30 6A 4D 5B
   3.019339 1  600             Rx   d 8 ED CD 00 EC A4 7D 30 09
   1.217594 1  100             Rx   d 8 7A 51 20 C5 61 D9 45 A1
   2.431008 1  1FF             Rx   d 8 70 EC 54 72 D0 14 2F BC
   1.831808 1  200             Rx   d 8 F3 0D B6 66 32 DD B3 27
   3.721595 1  2AB             Rx   d 8 E3 06 E2 16 93 90 E1 F4
   0.610018 1  300             Rx   d 8 27 50 37 5D D5 EA 96 D2
   12.218260 1  3E0             Rx   d 8 C3 44 34 79 0C B5 B9 22
   2.437691 1  400             Rx   d 8 BB BF 0E B3 3B 36 5F 5B
   0.843268 1  4CC             Rx   d 8 B1 F7 A5 2C 72 43 10 6D
   6.106030 1  500             Rx   d 8 6B 39 C0 16 40 9E E8 7E
   3.044554 1  600             Rx   d 8 C9 43 69 11 CC 4E 35 D5
   1.227460 1  100             Rx   d 8 CB EB 24 09 A2 05 75 F2
   2.450793 1  1FF             Rx   d 8 04 D6 E3 9D 87 C5 DC 3E
   1.847044 1  200             Rx   d 8 54 E6 D7 A8 26 D0 6D A6
   3.771592 1  2AB             Rx   d 8 48 86 24 FB 43 31 C4 7F
   0.615152 1  300             Rx   d 8 A7 B2 BC 4F 6B 05 DD 82
   12.321126 1  3E0             Rx   d 8 6A 03 76 DF DF 03 09 FD
   2.458258 1  400             Rx   d 8 65 A3 94 04 C8 1B AF 41
   0.853214 1  4CC             Rx   d 8 DE 9A 41 14 9C 6D 03 71
   6.156122 1  500             Rx   d 8 78 89 DB 78 3D C1 22 14
   3.069931 1  600             Rx   d 8 20 B0 A7 9D 3A 66 DB 6C
   1.237592 1  100             Rx   d 8 EB EF 67 64 F0 FB BB 7F
   2.470643 1  1FF             Rx   d 8 6E 53 8A 83 46 36 AF 29
   1.862127 1  200             Rx   d 8 14 8E 0E C7 42 4A 59 EA
   3.820971 1  2AB             Rx   d 8 E2 65 3A DD FC 83 2B DA
   0.619983 1  300             Rx   d 8 E3 14 51 1E 98 64 56 47
   12.422225 1  3E0             Rx   d 8 17 AF 8C DB C1 02 E0 AA
   2.477964 1  400             Rx   d 8 75 7E 03 5D 43 4B 44 20
   0.863347 1  4CC             Rx   d 8 89 65 EC 77 E3 92 A9 D2
   6.204906 1  500             Rx   d 8 3E 7E FC 12 8F 61 EE 4A
   3.094636 1  600             Rx   d 8 59 AA D0 51 85 88 53 5A
   1.247915 1  100             Rx   d 8 04 12 3C DB 08 28 01 E9
   2.490709 1  1FF             Rx   d 8 5A 40 30 6D 27 6A 95 4D
   1.877614 1  200             Rx   d 8 C2 64 8C BE E5 99 DC 74
   3.871775 1  2AB             Rx   d 8 6E 71 97 A5 ED F5 38 54
   0.625037 1  300             Rx   d 8 EA DD ED 4F 93 9F 5A B2
   12.522992 1  3E0             Rx   d 8 E5 C2 98 F0 90 06 1D 2E
   2.497599 1  400             Rx   d 8 28 04 C7 DC AB 20 48 27
   0.873256 1  4CC             Rx   d 8 AA A1 41 44 50 7D 38 A3
   6.255510 1  500             Rx   d 8 96 34 FD 3B 06 8A C0 79
   3.119931 1  600             Rx   d 8 94 DD B8 CA 0C 2D CB 11
   1.258100 1  100             Rx   d 8 AF B6 AE 0E 91 23 29 8D
   2.510025 1  1FF             Rx   d 8 9A D8 27 D5 9B C6 BD 98
   1.892662 1  200             Rx   d 8 75 F1 B3 5F 37 A0 2E 38
   3.921345 1  2AB             Rx   d 8 9A 78 91 18 88 92 E1 17
   0.630135 1  300             Rx   d 8 E8 53 A2 8C 13 A8 6B 4E
   12.621018 1  3E0             Rx   d 8 72 EB 89 C2 B2 C7 3E BB
   2.518094 1  400             Rx   d 8 47 42 E3 4C EB A7 F6 B8
   0.883200 1  4CC             Rx   d 8 5C 0D 0E D8 6F 9A 66 BA
   6.307100 1  500             Rx   d 8 C2 95 EE 40 F6 F9 41 CD
   3.144880 1  600             Rx   d 8 01 DC 4E 6E CE EA 86 E4
   1.268287 1  100             Rx   d 8 E4 CB 21 AB 85 FA 9F C2
   2.530385 1  1FF             Rx   d 8 4E 7E C7 6C 19 1A 21 87
   1.907399 1  200             Rx   d 8 03 F3 B7 5B 37 39 C3 F5
   3.969983 1  2AB             Rx   d 8 03 9B 51 7B 66 C0 5A 22
   0.635223 1  300             Rx   d 8 DE 75 66 A4 89 9E 41 96
   12.718631 1  3E0             Rx   d 8 37 5B 17 19 D5 08 00 E8
   2.537798 1  400             Rx   d 8 81 F6 5A 98 B5 B7 5C D4
   0.893512 1  4CC             Rx   d 8 F1 A4 96 28 BD 2F A3 CB
   6.358339 1  500             Rx   d 8 36 E2 14 DB 93 10 0A 70
   3.170208 1  600             Rx   d 8 FE 9C 5E B5 E8 4E DB 06
   1.278472 1  100             Rx   d 8 05 DB D5 4F F0 33 04 31
   2.550597 1  1FF             Rx   d 8 95 DA 1D E0 51 61 DE 9A
   1.922506 1  200             Rx   d 8 38 95 AA F1 E4 24 FF 6E
   4.018606 1  2AB             Rx   d 8 79 D0 58 46 33 4F 42 54
   0.640219 1  300             Rx   d 8 BD B1 D0 3D ED 43 01 36
   12.817984 1  3E0             Rx   d 8 02 20 29 78 5A 5B 18 16
   2.557593 1  400             Rx   d 8 CD B3 13 52 F9 72 4A D0
   0.903410 1  4CC             Rx   d 8 B7 9B 26 32 07 51 3D 14
   6.407720 1  500             Rx   d 8 82 B2 32 6C 39 8B 29 0C
   3.194345 1  600             Rx   d 8 99 BD 08 D3 62 B1 E9 0F
   1.288179 1  100             Rx   d 8 FC 6E 1B D0 DF FF 31 44
   2.570302 1  1FF             Rx   d 8 FB F2 14 D8 65 D8 82 A7
   1.937255 1  200             Rx   d 8 C5 3A 5D 98 2C C7 12 13
   4.067031 1  2AB             Rx   d 8 AA ED 96 1F B7 3A C8 F5
   0.645350 1  300             Rx   d 8 46 2A 53 0D A0 8B 35 93
   12.919168 1  3E0             Rx   d 8 8D 21 A6 08 75 AC CE D1
   2.577298 1  400             Rx   d 8 FD 65 06 C7 92 0D 7E 42
   0.913601 1  4CC             Rx   d 8 B1 32 CC 5E 68 5E 3D F5
   6.459287 1  500             Rx   d 8 A8 16 F9 67 FE 08 43 3F
   3.219305 1  600             Rx   d 8 8D C9 92 9A B4 19 B0 5B
   1.298157 1  100             Rx   d 8 21 C8 64 4C B3 57 C4 ED
   2.590251 1  1FF             Rx   d 8 1D 77 EA 11 33 F7 01 39
   1.952531 1  200             Rx   d 8 90 97 02 57 DC 21 0A B3
   4.115865 1  2AB             Rx   d 8 BB 78 50 C9 13 77 77 56
   0.650482 1  300             Rx   d 8 2F 06 A5 78 34 3E B4 9B
   13.019067 1  3E0             Rx   d 8 81 96 26 BB 9E 5C 16 3A
   2.597247 1  400             Rx   d 8 01 B2 20 9D BB 6D 4E CC
   0.923521 1  4CC             Rx   d 8 7E CB 16 EE A0 05 46 B8
   6.509215 1  500             Rx   d 8 43 99 6C 66 06 9E AF 0A
   3.244852 1  600             Rx   d 8 01 CD 5C 58 EE BB 86 24
   1.308328 1  100             Rx   d 8 0F 50 00 FD 65 90 51 0D
   2.610644 1  1FF             Rx   d 8 D3 D1 67 07 AB B9 79 2C
   1.967527 1  200             Rx   d 8 DE AD B4 7F 6B A6 44 E4
   4.164993 1  2AB             Rx   d 8 CC 7E 0D E6 51 EA AC 5B
   0.655501 1  300             Rx   d 8 9D CA FD 97 7A 5B A4 89
   13.120766 1  3E0             Rx   d 8 66 02 97 44 4D 06 FC B3
   2.616680 1  400             Rx   d 8 77 08 10 4A A8 1C 5D 9C
   0.933361 1  4CC             Rx   d 8 67 DC 52 AF 01 CE C3 AA
   6.558345 1  500             Rx   d 8 4C 6F C1 90 F9 53 4F D4
   3.270372 1  600             Rx   d 8 99 FC BA DA D6 63 46 93
   1.318310 1  100             Rx   d 8 0A 0E 6A E6 1E 3F 67 E1
   2.630969 1  1FF             Rx   d 8 0F 63 E7 CC 61 B6 30 3C
   1.982374 1  200             Rx   d 8 22 30 66 24 71 75 17 D8
   4.213885 1  2AB             Rx   d 8 5A A8 E4 DE F4 4C FA 31
   0.660577 1  300             Rx   d 8 67 4C 4C 14 5C F9 E7 12
   13.218600 1  3E0             Rx   d 8 C8 37 35 58 45 0F 6F BE
   2.636941 1  400             Rx   d 8 F8 4C DC E5 0A 5B B4 0D
   0.943692 1  4CC             Rx   d 8 CA 50 C8 FA 88 15 D4 1F
   6.609060 1  500             Rx   d 8 B0 E3 A9 93 4A 64 38 8F
   3.295704 1  600             Rx   d 8 77 C8 EA 26 00 41 05 82
   1.328602 1  100             Rx   d 8 67 27 C4 90 94 E5 0A 2A
   2.650789 1  1FF             Rx   d 8 30 45 3E 9A 90 A9 CE 7D
   1.997753 1  200             Rx   d 8 43 06 A9 C0 E0 E1 8C 26
   4.265031 1  2AB             Rx   d 8 85 B0 BE 3F 14 5B D1 C8
   0.665438 1  300             Rx   d 8 0F 56 49 48 D9 BB A2 01
   13.317826 1  3E0             Rx   d 8 BF A3 FD 54 8B 70 3A 35
   2.656618 1  400             Rx   d 8 2D 67 A5 01 AA F0 D2 96
   0.953825 1  4CC             Rx   d 8 F6 6A F4 EB B1 96 70 E8
   6.658229 1  500             Rx   d 8 C2 C2 2B 9D C1 30 69 FE
   3.320702 1  600             Rx   d 8 C3 F3 93 EF F4 87 89 34
   1.338813 1  100             Rx   d 8 E2 69 18 91 5F F0 C3 0F
   2.670637 1  1FF             Rx   d 8 53 13 63 D2 F4 17 57 34
   2.012670 1  200             Rx   d 8 7C 3B 72 40 F9 3D F9 7C
   4.314397 1  2AB             Rx   d 8 14 8B C4 E8 11 5E 91 4A
   0.670309 1  300             Rx   d 8 60 6F A9 FE 96 1A E8 4C
   13.417220 1  3E0             Rx   d 8 74 18 E4 25 F1 F4 56 4C
   2.676310 1  400             Rx   d 8 95 14 82 AE FA 75 F5 84
   0.963943 1  4CC             Rx   d 8 0F 01 AE 41 E7 FA 02 25
   6.707022 1  500             Rx   d 8 A5 F5 AC 76 BA E9 13 28
   3.345557 1  600             Rx   d 8 77 32 17 39 5E 9A A5 9C
   1.349040 1  100             Rx   d 8 A0 62 A0 31 D2 3E 64 33
   2.690532 1  1FF             Rx   d 8 DF D0 F1 21 F7 59 36 DE
   2.027965 1  200             Rx   d 8 19 51 00 82 8C 3D EA AC
   4.365501 1  2AB             Rx   d 8 F7 70 F2 0A 79 D8 F5 42
   0.675433 1  300             Rx   d 8 06 E4 7D C3 59 78 D1 03
   13.518150 1  3E0             Rx   d 8 0E A0 7B 0E 58 26 5E 19
   2.696331 1  400             Rx   d 8 C7 EB EB 98 80 65 F3 72
   0.973813 1  4CC             Rx   d 8 5F F6 0F 46 9C D9 5C 4E
   6.755682 1  500             Rx   d 8 A3 3A 5A D3 B3 DD 01 42
   3.370005 1  600             Rx   d 8 DC 3D DF CA 68 D1 B9 6F
   1.359064 1  100             Rx   d 8 46 99 C8 0B 5E A0 D8 9D
   2.710604 1  1FF             Rx   d 8 85 AB D1 3C D9 A1 3F 28
   2.043251 1  200             Rx   d 8 26 83 84 0C B6 CC 08 B1
   4.416669 1  2AB             Rx   d 8 16 46 F6 B3 68 24 1A 72
   0.680355 1  300             Rx   d 8 F7 FA F2 F8 59 41 5B 06
   13.616415 1  3E0             Rx   d 8 8F D5 7A 81 93 1B 11 82
   2.716737 1  400             Rx   d 8 4A 8C 83 E1 C8 CE C2 0A
   0.984067 1  4CC             Rx   d 8 FD 72 DD 10 84 DE AC 19
   6.805930 1  500             Rx   d 8 7F D4 4F EF EB B0 FC C5
   3.395162 1  600             Rx   d 8 92 1F 51 AF 4A B1 C3 D6
   1.368946 1  100             Rx   d 8 16 A0 A1 BE 33 E8 3E 34
   2.730593 1  1FF             Rx   d 8 FF CC DE 4C 55 32 70 3D
   2.058007 1  200             Rx   d 8 37 91 D3 87 49 29 3C 07
   4.467380 1  2AB             Rx   d 8 18 E4 45 B0 77 D9 A5 14
   0.685504 1  300             Rx   d 8 86 59 89 BE DC 7B 28 1D
   13.715818 1  3E0             Rx   d 8 D4 05 DE 6D 21 65 9B 4B
   2.736387 1  400             Rx   d 8 20 90 DA E5 96 81 2B 20
   0.994142 1  4CC             Rx   d 8 BC CB 2D 06 24 52 F2 08
   6.856881 1  500             Rx   d 8 A9 C7 99 05 23 7B F9 67
   3.419534 1  600             Rx   d 8 5F 17 C4 9F 08 B3 25 31
   1.379043 1  100             Rx   d 8 D6 6A 11 4A E2 5F 0B 6A
   2.749896 1  1FF             Rx   d 8 B5 D8 AE FD 35 29 55 2C
   2.073508 1  200             Rx   d 8 65 3E 00 3F 52 AA 68 24
   4.517016 1  2AB             Rx   d 8 13 4C E9 0F 48 B3 98 2D
   0.690672 1  300             Rx   d 8 91 E7 4D 1B B1 3F 30 C7
   13.816690 1  3E0             Rx   d 8 D1 72 7E DF A4 19 8F 8D
   2.756787 1  400             Rx   d 8 58 7B F2 31 FF 31 AD F3
   1.004312 1  4CC             Rx   d 8 68 BF 42 77 41 CD DE E2
   6.906770 1  500             Rx   d 8 41 0D 78 1E EF AF B7 94
   3.443869 1  600             Rx   d 8 DA 6B 31 56 ED A1 DE CE
   1.388999 1  100             Rx   d 8 84 D6 C6 9D 74 75 4C 79
   2.769636 1  1FF             Rx   d 8 9B 15 79 F1 15 74 6E E5
   2.089032 1  200             Rx   d 8 2E 2D 99 03 FF B0 52 CE
   4.566419 1  2AB             Rx   d 8 A2 3C 22 14 AD 02 5D CF
   0.695651 1  300             Rx   d 8 74 70 60 9A 5C C9 59 7C
   13.917983 1  3E0             Rx   d 8 45 D9 6C C9 67 68 96 2F
   2.777365 1  400             Rx   d 8 D4 C5 E3 53 A3 F0 02 99
   1.014620 1  4CC             Rx   d 8 CE 70 F0 4F 1E 0B DF 8E
   6.955792 1  500             Rx   d 8 78 16 8B 8E DB 3D 66 0B
   3.468188 1  600             Rx   d 8 84 19 97 C8 34 89 3D 3D
   1.398671 1  100             Rx   d 8 73 3E 7C B3 4E E5 8F 74
   2.789052 1  1FF             Rx   d 8 9E BB AD D4 A4 6B F6 EC
   2.104032 1  200             Rx   d 8 DC E4 90 F0 AA 0D BF 12
   4.616982 1  2AB             Rx   d 8 DB 30 22 F6 06 B5 96 DF
   0.700755 1  300             Rx   d 8 D7 03 54 AC 6A BE 68 A4
   14.020082 1  3E0             Rx   d 8 BB 44 C0 83 15 8E A4 98
   2.796778 1  400             Rx   d 8 51 EB E5 97 30 AF 09 75
   1.024460 1  4CC             Rx   d 8 24 10 AA 9A B1 73 F6 07
   7.006334 1  500             Rx   d 8 5F 84 E1 AE F3 B3 88 69
   3.492935 1  600             Rx   d 8 A3 38 2F AF 3A DD D6 5A
   1.408647 1  100             Rx   d 8 99 D3 74 AD DF 1D 4F 8D
   2.809469 1  1FF             Rx   d 8 A9 AA AC 95 9B FB 50 10
   2.119180 1  200             Rx   d 8 26 FE 78 65 70 D9 43 56
   4.667314 1  2AB             Rx   d 8 67 54 AA FA AC A1 EE 4A
   0.705582 1  300             Rx   d 8 58 50 75 6F 30 BF 9B 89
   14.120479 1  3E0             Rx   d 8 83 19 75 04 02 98 08 E4
   2.817172 1  400             Rx   d 8 AD 50 8F 60 05 ED FF 2C
   1.034552 1  4CC             Rx   d 8 60 C1 27 10 77 3A 65 57
   7.057369 1  500             Rx   d 8 C9 C8 D0 66 69 25 D9 94
   3.518060 1  600             Rx   d 8 DE F6 D9 0A F0 33 EA 19
   1.418376 1  100             Rx   d 8 8E 0E 1E 5D B6 94 CC FF
   2.829014 1  1FF             Rx   d 8 39 65 B3 F9 8B B9 95 24
   2.134310 1  200             Rx   d 8 B6 A0 62 1B B9 06 A1 F9
   4.718947 1  2AB             Rx   d 8 E3 91 3F 50 FB C0 52 36
   0.710685 1  300             Rx   d 8 3D 3D A0 48 69 5D E9 EE
   14.221826 1  3E0             Rx   d 8 A9 97 CB AF 12 15 D9 81
   2.836509 1  400             Rx   d 8 0B 1C 0E E9 C9 8B 2F 89
   1.044461 1  4CC             Rx   d 8 B6 4D 08 E5 D1 ED EB 58
   7.107791 1  500             Rx   d 8 35 DC FF 10 B6 10 9A 29
   3.543206 1  600             Rx   d 8 7B 56 0E 91 9F DC D1 60
   1.428316 1  100             Rx   d 8 7B CD 91 38 FA CD C4 05
   2.849588 1  1FF             Rx   d 8 74 70 CD A2 2B 85 F3 C4
   2.149493 1  200             Rx   d 8 FF 1E BC C1 E1 FA 3F 27
   4.770226 1  2AB             Rx   d 8 28 91 03 EC 5C 4A 9C CE
   0.715776 1  300             Rx   d 8 AF F5 99 14 8E 85 69 D2
   14.322284 1  3E0             Rx   d 8 AA 5C 5C E0 38 1E A1 81
   2.856306 1  400             Rx   d 8 A4 14 26 90 25 94 7F C3
   1.054126 1  4CC             Rx   d 8 14 CF 08 EA EA FF 28 52
   7.158025 1  500             Rx   d 8 BD FB CE EF C8 4D BC 60
   3.568015 1  600             Rx   d 8 2C E2 CC 98 1C C5 71 0E
   1.438343 1  100             Rx   d 8 26 5D 2E 37 B1 D4 E9 5E
   2.869205 1  1FF             Rx   d 8 B1 0D 09 64 34 43 0B 8E
   2.164004 1  200             Rx   d 8 82 48 C3 5A D5 90 EA FE
   4.818594 1  2AB             Rx   d 8 5D D3 0D AD 6B 59 26 80
   0.720941 1  300             Rx   d 8 70 C2 CD 67 7E 7A 18 A9
   14.420649 1  3E0             Rx   d 8 0F 8A DC A8 86 16 A0 46
   2.876985 1  400             Rx   d 8 4F D3 5A C7 DB 07 15 D0
   1.064090 1  4CC             Rx   d 8 47 FC CD 6E 7E EA 00 76
   7.209643 1  500             Rx   d 8 B7 04 98 1D 75 B7 A3 74
   3.592421 1  600             Rx   d 8 1A 73 33 FC AE B5 B6 BD
   1.448613 1  100             Rx   d 8 55 27 65 40 CA 6D 8F 20
   2.889511 1  1FF             Rx   d 8 8F 0B BE E3 20 81 29 9E
   2.178753 1  200             Rx   d 8 83 11 7C 34 C6 6F 8D 66
   4.867730 1  2AB             Rx   d 8 2E 05 28 D4 86 35 EF CC
   0.725823 1  300             Rx   d 8 22 1A 58 D8 3A 5D BE 65
   14.519166 1  3E0             Rx   d 8 C3 62 CC FC 90 1C 47 B1
   2.897337 1  400             Rx   d 8 EA 78 0C D5 70 1F 2F B5
   1.073856 1  4CC             Rx   d 8 5D 78 AE 34 C8 51 3C 41
   7.260777 1  500             Rx   d 8 7E 1C 77 9E 46 5E A9 83
   3.617626 1  600             Rx   d 8 90 61 BF 1A 7F 10 DA 40
   1.458708 1  100             Rx   d 8 B2 6B 70 54 A7 4F 81 01
   2.909751 1  1FF             Rx   d 8 98 91 95 5C B0 C0 39 62
   2.193682 1  200             Rx   d 8 5C 59 85 99 AA FF 97 A5
   4.916954 1  2AB             Rx   d 8 6B F9 B2 C3 B6 22 4C EA
   0.730804 1  300             Rx   d 8 E1 FA 7A 43 C4 FE 8F 53
   14.619475 1  3E0             Rx   d 8 1F 37 8F 26 E4 04 4E EA
   2.916768 1  400             Rx   d 8 F3 8C 30 AD 63 28 3A 5B
   1.083560 1  4CC             Rx   d 8 01 CA 38 64 16 72 ED 67
   7.312475 1  500             Rx   d 8 9A 34 1A A9 4F F6 07 68
   3.643008 1  600             Rx   d 8 2B 31 DC 47 46 CB 9F 01
   1.468993 1  100             Rx   d 8 81 23 97 EC B0 54 0E E6
   2.929854 1  1FF             Rx   d 8 22 E1 EF 3A 20 FD 73 A9
   2.208901 1  200             Rx   d 8 5F D6 B8 88 9B BF 25 61
   4.966961 1  2AB             Rx   d 8 39 71 E8 ED 9B 81 1C 7B
   0.735665 1  300             Rx   d 8 1E 90 AF FC AE 6E 1E AF
   14.722417 1  3E0             Rx   d 8 8C E2 C3 D6 FF 91 F4 6F
   2.937091 1  400             Rx   d 8 5F D8 CF EF 53 7A FF F3
   1.093322 1  4CC             Rx   d 8 24 F4 B1 F8 61 70 90 3B
   7.363281 1  500             Rx   d 8 7E 9F 50 BE 36 02 91 9E
   3.667779 1  600             Rx   d 8 E6 87 F7 FD 6F 71 07 62
   1.479008 1  100             Rx   d 8 4A 34 8B 7A 23 ED 32 CA
   2.949321 1  1FF             Rx   d 8 8A B9 1C 48 E2 87 E0 28
   2.224029 1  200             Rx   d 8 18 1F 34 3B 86 32 21 90
   5.015403 1  2AB             Rx   d 8 AD 74 0E 8D C4 8A E1 D0
   0.740709 1  300             Rx   d 8 12 24 18 07 FE BC 86 4E
   14.825852 1  3E0             Rx   d 8 63 55 94 80 5C C2 9A A7
   2.956658 1  400             Rx   d 8 F7 65 3D 00 5C CE 1A 21
   1.102972 1  4CC             Rx   d 8 C6 9C 39 01 D0 43 09 85
   7.414692 1  500             Rx   d 8 EB 7D 21 5D 21 E5 61 2B
   3.693515 1  600             Rx   d 8 15 C6 7F 2D 0E 67 44 4F
   1.489223 1  100             Rx   d 8 CC 15 5F A8 66 7B D4 49
   2.969783 1  1FF             Rx   d 8 50 9F AC FC 61 E5 27 87
   2.238573 1  200             Rx   d 8 C2 A9 3A 59 57 E6 21 1B
   5.065188 1  2AB             Rx   d 8 BA 42 C3 BB 57 03 C0 AB
   0.745608 1  300             Rx   d 8 53 58 65 70 38 DC ED B4
   14.923773 1  3E0             Rx   d 8 64 70 33 59 7D 76 A2 C8
   2.977267 1  400             Rx   d 8 03 10 8A EB 28 80 92 63
   1.112649 1  4CC             Rx   d 8 57 AA 6F 8D 4A EE F3 0B
   7.463244 1  500             Rx   d 8 21 64 A9 D2 9B 8C 95 61
   3.719310 1  600             Rx   d 8 60 0F E8 D8 FF 31 43 74
   1.499481 1  100             Rx   d 8 6A 3D 99 82 C0 25 44 CB
   2.989466 1  1FF             Rx   d 8 B4 39 6D 5D 8D FC F7 54
   2.253460 1  200             Rx   d 8 0E 8F 02 EC 20 7D A3 F7
   5.116380 1  2AB             Rx   d 8 3E 6B BE 24 AC 5A 77 8B
   0.750679 1  300             Rx   d 8 7C 7F 81 06 4F D1 87 08
   15.020608 1  3E0             Rx   d 8 B1 79 30 FB 67 3E 2B C4
   2.997082 1  400             Rx   d 8 15 57 73 25 54 8B 55 1C
   1.122357 1  4CC             Rx   d 8 9C A6 84 21 81 41 0E 88
   7.512082 1  500             Rx   d 8 22 24 7C 4D A3 38 D7 86
   3.744022 1  600             Rx   d 8 09 30 45 E4 4F 02 39 1F
End Triggerblock
